Vin, Vout, Iin, Iout
+4.50590130E+01, +5.01371900E+00, +1.46600000E-04, -3.93000000E-06
+4.50605790E+01, +5.01647430E+00, +1.41360000E-04, -2.62000000E-06
+4.50608400E+01, +5.02078340E+00, +2.05500000E-04, +4.22780000E-04
+4.50617540E+01, +5.02095320E+00, +3.39010000E-04, +1.44244000E-03
+4.50620150E+01, +5.01990860E+00, +4.98700000E-04, +2.45947000E-03
+4.50582300E+01, +5.01919040E+00, +6.40060000E-04, +3.44771000E-03
+4.50613620E+01, +5.01852440E+00, +7.70960000E-04, +4.48961000E-03
+4.50600570E+01, +5.01787150E+00, +9.11010000E-04, +5.50403000E-03
+4.50580990E+01, +5.01727080E+00, +1.05892000E-03, +6.52368000E-03
+4.50609710E+01, +5.01663100E+00, +1.19767000E-03, +7.52632000E-03
+4.50605790E+01, +5.01610860E+00, +1.34296000E-03, +8.56299000E-03
+4.50611010E+01, +5.01574300E+00, +1.48956000E-03, +9.58787000E-03
+4.50601870E+01, +5.01524680E+00, +1.62830000E-03, +1.05983600E-02
+4.50600570E+01, +5.01459390E+00, +1.77359000E-03, +1.16232500E-02
+4.50604490E+01, +5.01429360E+00, +1.89794000E-03, +1.26114900E-02
+4.50605790E+01, +5.01375820E+00, +2.04323000E-03, +1.36350700E-02
+4.50611010E+01, +5.01347090E+00, +2.19899000E-03, +1.46665000E-02
+4.50609710E+01, +5.01298770E+00, +2.34952000E-03, +1.56940100E-02
+4.50611010E+01, +5.01240010E+00, +2.49088000E-03, +1.66743900E-02
+4.50575770E+01, +5.01208670E+00, +2.62963000E-03, +1.77228400E-02
+4.50588820E+01, +5.01177330E+00, +2.77885000E-03, +1.87529700E-02
+4.50582300E+01, +5.01130320E+00, +2.91628000E-03, +1.97804700E-02
+4.50584910E+01, +5.01089840E+00, +3.06027000E-03, +2.07975100E-02
+4.50584910E+01, +5.01053280E+00, +3.20163000E-03, +2.18001600E-02
+4.50591430E+01, +5.01012800E+00, +3.34561000E-03, +2.28250500E-02
+4.50596650E+01, +5.00972320E+00, +3.48828000E-03, +2.38669600E-02
+4.50603180E+01, +5.00967100E+00, +3.63750000E-03, +2.48997000E-02
+4.50591430E+01, +5.00909640E+00, +3.77232000E-03, +2.58669900E-02
+4.50596650E+01, +5.00874380E+00, +3.92154000E-03, +2.68971200E-02
+4.50599260E+01, +5.00845660E+00, +4.06421000E-03, +2.79442600E-02
+4.50599260E+01, +5.00816930E+00, +4.20819000E-03, +2.89756900E-02
+4.50579690E+01, +5.00756860E+00, +4.34170000E-03, +2.99730900E-02
+4.50586210E+01, +5.00735970E+00, +4.49354000E-03, +3.09652600E-02
+4.50582300E+01, +5.00715080E+00, +4.64799000E-03, +3.19927600E-02
+4.50596650E+01, +5.00675900E+00, +4.78019000E-03, +3.30268100E-02
+4.50579690E+01, +5.00641950E+00, +4.91370000E-03, +3.40530100E-02
+4.50587520E+01, +5.00583190E+00, +5.05245000E-03, +3.50412500E-02
+4.50595350E+01, +5.00585800E+00, +5.21083000E-03, +3.60870800E-02
+4.50596650E+01, +5.00559680E+00, +5.35219000E-03, +3.71119700E-02
+4.50600570E+01, +5.00516590E+00, +5.50141000E-03, +3.81394700E-02
+4.50601870E+01, +5.00497000E+00, +5.63361000E-03, +3.91106900E-02
+4.50603180E+01, +5.00468280E+00, +5.77236000E-03, +4.01552200E-02
+4.50569240E+01, +5.00429100E+00, +5.92812000E-03, +4.11683200E-02
+4.50574460E+01, +5.00418660E+00, +6.07079000E-03, +4.22167900E-02
+4.50573160E+01, +5.00374260E+00, +6.21739000E-03, +4.32429900E-02
+4.50573160E+01, +5.00391230E+00, +6.36007000E-03, +4.42364600E-02
+4.50590130E+01, +5.00355980E+00, +6.49881000E-03, +4.52600400E-02
+4.50586210E+01, +5.00310270E+00, +6.65588000E-03, +4.62888600E-02
+4.50591430E+01, +5.00294600E+00, +6.78154000E-03, +4.73072000E-02
+4.50586210E+01, +5.00298520E+00, +6.93076000E-03, +4.83032900E-02
+4.50584910E+01, +5.00295910E+00, +7.07474000E-03, +4.93360400E-02
+4.50584910E+01, +5.00303740E+00, +7.21610000E-03, +5.03360500E-02
+4.50592740E+01, +5.00293300E+00, +7.35485000E-03, +5.13871200E-02
+4.50594040E+01, +5.00323330E+00, +7.50407000E-03, +5.23832100E-02
+4.50564020E+01, +5.00285460E+00, +7.65197000E-03, +5.33950200E-02
+4.50573160E+01, +5.00353370E+00, +7.79203000E-03, +5.44238400E-02
+4.50577080E+01, +5.00268490E+00, +7.93601000E-03, +5.54526500E-02
+4.50586210E+01, +5.00401680E+00, +8.09832000E-03, +5.64906300E-02
+4.50575770E+01, +5.00426490E+00, +8.23576000E-03, +5.74723200E-02
+4.50573160E+01, +5.00426490E+00, +8.38759000E-03, +5.85076800E-02
+4.50566630E+01, +5.00493090E+00, +8.53812000E-03, +5.95495900E-02
+4.50579690E+01, +5.00480030E+00, +8.67163000E-03, +6.05705500E-02
+4.50569240E+01, +5.00529650E+00, +8.82608000E-03, +6.15535500E-02
+4.50583600E+01, +5.00634120E+00, +8.96483000E-03, +6.25915300E-02
+4.50587520E+01, +5.00544010E+00, +9.11273000E-03, +6.36216700E-02
+4.50567940E+01, +5.00532260E+00, +9.26981000E-03, +6.46504900E-02
+4.50574460E+01, +5.00652400E+00, +9.41771000E-03, +6.56701400E-02
+4.50565330E+01, +5.00678510E+00, +9.55908000E-03, +6.66544500E-02
+4.50570550E+01, +5.00399070E+00, +9.69652000E-03, +6.76989700E-02
+4.50565330E+01, +5.00687650E+00, +9.85359000E-03, +6.87212400E-02
+4.50579690E+01, +5.00711160E+00, +9.99888000E-03, +6.97579100E-02
+4.50566630E+01, +5.00687650E+00, +1.01219200E-02, +7.07199700E-02
+4.50582300E+01, +5.00649780E+00, +1.02920800E-02, +7.17618800E-02
+4.50584910E+01, +5.00678510E+00, +1.04386800E-02, +7.27946200E-02
+4.50578380E+01, +5.00660230E+00, +1.05826600E-02, +7.38168900E-02
+4.50575770E+01, +5.00662840E+00, +1.07266400E-02, +7.48182200E-02
+4.50557500E+01, +5.00626280E+00, +1.08758600E-02, +7.58365600E-02
+4.50549670E+01, +5.00653700E+00, +1.10185300E-02, +7.68562100E-02
+4.50557500E+01, +5.00635420E+00, +1.11703600E-02, +7.79020400E-02
+4.50562720E+01, +5.00567520E+00, +1.13195800E-02, +7.89400200E-02
+4.50570550E+01, +5.00558380E+00, +1.14622600E-02, +7.99295700E-02
+4.50574460E+01, +5.00275020E+00, +1.15918400E-02, +8.05748700E-02
+4.50575770E+01, +5.00507450E+00, +1.17476000E-02, +8.19662500E-02
+4.50571850E+01, +5.00483950E+00, +1.18942000E-02, +8.29950700E-02
+4.50570550E+01, +5.00457830E+00, +1.20329500E-02, +8.39977400E-02
+4.50571850E+01, +5.00425180E+00, +1.21795500E-02, +8.50370200E-02
+4.50577080E+01, +5.00194060E+00, +1.23261500E-02, +8.60422800E-02
+4.50571850E+01, +5.00335080E+00, +1.24727500E-02, +8.70841800E-02
+4.50564020E+01, +5.00294600E+00, +1.26193400E-02, +8.81129900E-02
+4.50562720E+01, +5.00261960E+00, +1.27489300E-02, +8.91130100E-02
+4.50549670E+01, +5.00224090E+00, +1.29007600E-02, +9.01457600E-02
+4.50564020E+01, +5.00126150E+00, +1.30486700E-02, +9.11326800E-02
+4.50561410E+01, +5.00128770E+00, +1.31887300E-02, +9.21706600E-02
+4.50561410E+01, +5.00085670E+00, +1.33287800E-02, +9.31615200E-02
+4.50557500E+01, +5.00058250E+00, +1.34727600E-02, +9.41968800E-02
+4.50574460E+01, +5.00026910E+00, +1.36154400E-02, +9.52335500E-02
+4.50549670E+01, +5.00029520E+00, +1.37698900E-02, +9.62518900E-02
+4.50562720E+01, +4.99985130E+00, +1.38994700E-02, +9.72453600E-02
+4.50557500E+01, +4.99943340E+00, +1.40473800E-02, +9.82741800E-02
+4.50547050E+01, +4.99923750E+00, +1.41913600E-02, +9.93095400E-02
+4.50558800E+01, +4.99905470E+00, +1.43405800E-02, +1.00338350E-01
+4.50561410E+01, +4.99888500E+00, +1.44806400E-02, +1.01372400E-01
+4.50560110E+01, +4.99825820E+00, +1.46272400E-02, +1.02351480E-01
+4.50573160E+01, +4.99717430E+00, +1.47672900E-02, +1.03397310E-01
+4.50562720E+01, +4.99751390E+00, +1.49152000E-02, +1.04422200E-01
+4.50566630E+01, +4.99735720E+00, +1.50683400E-02, +1.05465430E-01
+4.50574460E+01, +4.99686090E+00, +1.51926900E-02, +1.06449740E-01
+4.50541830E+01, +4.99673040E+00, +1.53432200E-02, +1.07462850E-01
+4.50543140E+01, +4.99645610E+00, +1.54767300E-02, +1.08511300E-01
+4.50553580E+01, +4.99628640E+00, +1.56351100E-02, +1.09527030E-01
+4.50547050E+01, +4.99340050E+00, +1.57712400E-02, +1.10565000E-01
+4.50558800E+01, +4.99492830E+00, +1.59191400E-02, +1.11542770E-01
+4.50557500E+01, +4.99481080E+00, +1.60500400E-02, +1.12562420E-01
+4.50553580E+01, +4.99440600E+00, +1.62058000E-02, +1.13584690E-01
+4.50566630E+01, +4.99409260E+00, +1.63497800E-02, +1.14635760E-01
+4.50557500E+01, +4.99410570E+00, +1.64924500E-02, +1.15609610E-01
+4.50569240E+01, +4.99357030E+00, +1.66259600E-02, +1.16639730E-01
+4.50566630E+01, +4.99370090E+00, +1.67804200E-02, +1.17673780E-01
+4.50543140E+01, +4.99423630E+00, +1.69257100E-02, +1.18714380E-01
+4.50549670E+01, +4.99222530E+00, +1.70683800E-02, +1.19696070E-01
+4.50556190E+01, +4.99269540E+00, +1.72162900E-02, +1.20728810E-01
+4.50536610E+01, +4.99276070E+00, +1.73668200E-02, +1.21741920E-01
+4.50547050E+01, +4.99261710E+00, +1.75055600E-02, +1.22768120E-01
+4.50564020E+01, +4.99230370E+00, +1.76469200E-02, +1.23806100E-01
+4.50547050E+01, +4.99273460E+00, +1.77948300E-02, +1.24804810E-01
+4.50545750E+01, +4.99263010E+00, +1.79414300E-02, +1.25834960E-01
+4.50554890E+01, +4.99312630E+00, +1.80906500E-02, +1.26857230E-01
+4.50558800E+01, +4.99466720E+00, +1.82372500E-02, +1.27889970E-01
+4.50562720E+01, +4.99013600E+00, +1.83668300E-02, +1.28874280E-01
+4.50534000E+01, +4.99159850E+00, +1.85160500E-02, +1.29909640E-01
+4.50532700E+01, +4.99226450E+00, +1.86796700E-02, +1.30945000E-01
+4.50550970E+01, +4.99268230E+00, +1.88262700E-02, +1.31945020E-01
+4.50537920E+01, +4.99315240E+00, +1.89872600E-02, +1.32975150E-01
+4.50543140E+01, +4.99360950E+00, +1.91220800E-02, +1.33977780E-01
+4.50543140E+01, +4.99400120E+00, +1.92791500E-02, +1.35013140E-01
+4.50547050E+01, +4.99413180E+00, +1.94270600E-02, +1.36028870E-01
+4.50541830E+01, +4.99311330E+00, +1.95697400E-02, +1.37069480E-01
+4.50554890E+01, +4.99229060E+00, +1.96927700E-02, +1.38062960E-01
+4.50554890E+01, +4.99158550E+00, +1.98210500E-02, +1.39077370E-01
+4.50554890E+01, +4.99178130E+00, +1.99650300E-02, +1.40102260E-01
+4.50560110E+01, +4.99166380E+00, +2.01155600E-02, +1.41165110E-01
+4.50522260E+01, +4.99256480E+00, +2.02569200E-02, +1.42129790E-01
+4.50531390E+01, +4.99282600E+00, +2.04179200E-02, +1.43174310E-01
+4.50535310E+01, +4.99381840E+00, +2.05815300E-02, +1.44203120E-01
+4.50535310E+01, +4.99431460E+00, +2.07530000E-02, +1.45241100E-01
+4.50539220E+01, +4.99073670E+00, +2.08721200E-02, +1.46263370E-01
+4.50535310E+01, +4.99073670E+00, +2.10095700E-02, +1.47250310E-01
+4.50539220E+01, +4.99060610E+00, +2.11483200E-02, +1.48275200E-01
+4.50534000E+01, +4.99074970E+00, +2.12883700E-02, +1.49302700E-01
+4.50541830E+01, +4.99138960E+00, +2.14519900E-02, +1.50348540E-01
+4.50539220E+01, +4.99180740E+00, +2.15933500E-02, +1.51330230E-01
+4.50534000E+01, +4.99076280E+00, +2.17242500E-02, +1.52344650E-01
+4.50534000E+01, +4.99148100E+00, +2.18800100E-02, +1.53381310E-01
+4.50537920E+01, +4.99154630E+00, +2.20305300E-02, +1.54394420E-01
+4.50535310E+01, +4.99149410E+00, +2.21732100E-02, +1.55436330E-01
+4.50539220E+01, +4.99138960E+00, +2.23237300E-02, +1.56432420E-01
+4.50549670E+01, +4.99239510E+00, +2.24611700E-02, +1.57446850E-01
+4.50540530E+01, +4.98627080E+00, +2.25842100E-02, +1.58491380E-01
+4.50535310E+01, +4.98807280E+00, +2.27425900E-02, +1.59511030E-01
+4.50514420E+01, +4.98932640E+00, +2.28931200E-02, +1.60518900E-01
+4.50517030E+01, +4.98883020E+00, +2.30384100E-02, +1.61546410E-01
+4.50530090E+01, +4.98875180E+00, +2.31810800E-02, +1.62545120E-01
+4.50523560E+01, +4.98897380E+00, +2.33316100E-02, +1.63564770E-01
+4.50523560E+01, +4.98877800E+00, +2.34638100E-02, +1.64562170E-01
+4.50523560E+01, +4.98747210E+00, +2.36208800E-02, +1.65601460E-01
+4.50526170E+01, +4.98815120E+00, +2.37674800E-02, +1.66640740E-01
+4.50535310E+01, +4.98809890E+00, +2.39219300E-02, +1.67648620E-01
+4.50528780E+01, +4.98863430E+00, +2.40724600E-02, +1.68704930E-01
+4.50536610E+01, +4.98871270E+00, +2.42046600E-02, +1.69681390E-01
+4.50545750E+01, +4.98872570E+00, +2.43591100E-02, +1.70729830E-01
+4.50545750E+01, +4.98967900E+00, +2.45057100E-02, +1.71750800E-01
+4.50518340E+01, +4.98482130E+00, +2.46287500E-02, +1.72752120E-01
+4.50534000E+01, +4.98651890E+00, +2.47779700E-02, +1.73752140E-01
+4.50530090E+01, +4.98772030E+00, +2.49428900E-02, +1.74774410E-01
+4.50522260E+01, +4.98777250E+00, +2.50934200E-02, +1.75809770E-01
+4.50523560E+01, +4.98765500E+00, +2.52387100E-02, +1.76839900E-01
+4.50520950E+01, +4.98787690E+00, +2.53813800E-02, +1.77826820E-01
+4.50524870E+01, +4.98789000E+00, +2.55384500E-02, +1.78849130E-01
+4.50535310E+01, +4.98756360E+00, +2.56837400E-02, +1.79888410E-01
+4.50534000E+01, +4.98748520E+00, +2.58368900E-02, +1.80931620E-01
+4.50515730E+01, +4.98751130E+00, +2.59821800E-02, +1.81964370E-01
+4.50509200E+01, +4.98758970E+00, +2.61235400E-02, +1.82948680E-01
+4.50514420E+01, +4.98740690E+00, +2.62727600E-02, +1.83987960E-01
+4.50513120E+01, +4.98711960E+00, +2.64324500E-02, +1.85002380E-01
+4.50515730E+01, +4.98661030E+00, +2.65842800E-02, +1.86040360E-01
+4.50506590E+01, +4.98301930E+00, +2.67073200E-02, +1.87032520E-01
+4.50531390E+01, +4.98436430E+00, +2.68342900E-02, +1.88060030E-01
+4.50517030E+01, +4.98654500E+00, +2.69730300E-02, +1.89084930E-01
+4.50523560E+01, +4.98781170E+00, +2.71314100E-02, +1.90121600E-01
+4.50519640E+01, +4.98777250E+00, +2.72884900E-02, +1.91145180E-01
+4.50532700E+01, +4.98751130E+00, +2.74324700E-02, +1.92143890E-01
+4.50502680E+01, +4.98744600E+00, +2.75908500E-02, +1.93166160E-01
+4.50500070E+01, +4.98730240E+00, +2.77374500E-02, +1.94189730E-01
+4.50506590E+01, +4.98689760E+00, +2.78853600E-02, +1.95215930E-01
+4.50506590E+01, +4.98683230E+00, +2.80267200E-02, +1.96214640E-01
+4.50513120E+01, +4.98651890E+00, +2.81746300E-02, +1.97240840E-01
+4.50519640E+01, +4.98672780E+00, +2.83251500E-02, +1.98261800E-01
+4.50517030E+01, +4.98649280E+00, +2.84835300E-02, +1.99294570E-01
+4.50531390E+01, +4.98632300E+00, +2.86249000E-02, +2.00290660E-01
+4.50517030E+01, +4.98653200E+00, +2.87715000E-02, +2.01320790E-01
+4.50509200E+01, +4.98681920E+00, +2.89141700E-02, +2.02365310E-01
+4.50519640E+01, +4.98800750E+00, +2.90568400E-02, +2.03369250E-01
+4.50520950E+01, +4.98602270E+00, +2.92047500E-02, +2.04411160E-01
+4.50501370E+01, +4.98582680E+00, +2.93382600E-02, +2.05398090E-01
+4.50505290E+01, +4.98547430E+00, +2.95005700E-02, +2.06430830E-01
+4.50501370E+01, +4.98583990E+00, +2.96340800E-02, +2.07451790E-01
+4.50507900E+01, +4.98580070E+00, +2.98055500E-02, +2.08491080E-01
+4.50510510E+01, +4.98586600E+00, +2.99416800E-02, +2.09487170E-01
+4.50507900E+01, +4.98559180E+00, +3.00948200E-02, +2.10519920E-01
+4.50500070E+01, +4.98548730E+00, +3.02348800E-02, +2.11551350E-01
+4.50506590E+01, +4.98556570E+00, +3.03893300E-02, +2.12552680E-01
+4.50506590E+01, +4.98547430E+00, +3.05306900E-02, +2.13577570E-01
+4.50519640E+01, +4.98526530E+00, +3.06799100E-02, +2.14576280E-01
+4.50510510E+01, +4.98249700E+00, +3.08396000E-02, +2.15609020E-01
+4.50514420E+01, +4.98450800E+00, +3.09770400E-02, +2.16644380E-01
+4.50507900E+01, +4.98446880E+00, +3.11262500E-02, +2.17658800E-01
+4.50496150E+01, +4.98435130E+00, +3.12754700E-02, +2.18662740E-01
+4.50490930E+01, +4.98419460E+00, +3.14181400E-02, +2.19700720E-01
+4.50492230E+01, +4.98435130E+00, +3.15634300E-02, +2.20712560E-01
+4.50503980E+01, +4.98411620E+00, +3.17087200E-02, +2.21734830E-01
+4.50510510E+01, +4.98397260E+00, +3.18566300E-02, +2.22736160E-01
+4.50513120E+01, +4.98358080E+00, +3.20176300E-02, +2.23766280E-01
+4.50494850E+01, +4.98345020E+00, +3.21668500E-02, +2.24796400E-01
+4.50497460E+01, +4.98119120E+00, +3.23213000E-02, +2.25842240E-01
+4.50500070E+01, +4.98112590E+00, +3.24391000E-02, +2.26856650E-01
+4.50467440E+01, +4.98256230E+00, +3.25961800E-02, +2.27855360E-01
+4.50472660E+01, +4.98303240E+00, +3.27362300E-02, +2.28888100E-01
+4.50477880E+01, +4.98316300E+00, +3.28919900E-02, +2.29916920E-01
+4.50487010E+01, +4.98286260E+00, +3.30425200E-02, +2.30957520E-01
+4.50479180E+01, +4.98241860E+00, +3.31825700E-02, +2.31945760E-01
+4.50493540E+01, +4.98236640E+00, +3.33265600E-02, +2.32965410E-01
+4.50487010E+01, +4.98228810E+00, +3.34744600E-02, +2.33971980E-01
+4.50483100E+01, +4.98202690E+00, +3.36446200E-02, +2.35015190E-01
+4.50489620E+01, +4.97912800E+00, +3.37650500E-02, +2.36045320E-01
+4.50485710E+01, +4.98095610E+00, +3.39116500E-02, +2.37050570E-01
+4.50488320E+01, +4.98196160E+00, +3.40595500E-02, +2.38053210E-01
+4.50481790E+01, +4.98189630E+00, +3.42035400E-02, +2.39095110E-01
+4.50485710E+01, +4.98193550E+00, +3.43593000E-02, +2.40137010E-01
+4.50500070E+01, +4.98197470E+00, +3.45032800E-02, +2.41120020E-01
+4.50496150E+01, +4.98202690E+00, +3.46551100E-02, +2.42156700E-01
+4.50496150E+01, +4.98224890E+00, +3.47938600E-02, +2.43173730E-01
+4.50490930E+01, +4.98283650E+00, +3.49509300E-02, +2.44201240E-01
+4.50494850E+01, +4.98218360E+00, +3.50923000E-02, +2.45198640E-01
+4.50501370E+01, +4.98234030E+00, +3.52441300E-02, +2.46226140E-01
+4.50493540E+01, +4.98237950E+00, +3.53959700E-02, +2.47260190E-01
+4.50488320E+01, +4.98222280E+00, +3.55438700E-02, +2.48281150E-01
+4.50476570E+01, +4.98254920E+00, +3.56904700E-02, +2.49317820E-01
+4.50492230E+01, +4.98261450E+00, +3.58357600E-02, +2.50311300E-01
+4.50497460E+01, +4.98251010E+00, +3.59902200E-02, +2.51336190E-01
+4.50488320E+01, +4.98237950E+00, +3.61407400E-02, +2.52380740E-01
+4.50487010E+01, +4.98283650E+00, +3.62716400E-02, +2.53370280E-01
+4.50484400E+01, +4.98288870E+00, +3.64365600E-02, +2.54359830E-01
+4.50489620E+01, +4.98284960E+00, +3.65753100E-02, +2.55389960E-01
+4.50494850E+01, +4.98294100E+00, +3.67363100E-02, +2.56433170E-01
+4.50487010E+01, +4.98312380E+00, +3.68920700E-02, +2.57456750E-01
+4.50507900E+01, +4.98260150E+00, +3.70177200E-02, +2.58484250E-01
+4.50481790E+01, +4.98210530E+00, +3.71643200E-02, +2.59485580E-01
+4.50468740E+01, +4.98298010E+00, +3.73266300E-02, +2.60514400E-01
+4.50472660E+01, +4.98301930E+00, +3.74810800E-02, +2.61536670E-01
+4.50479180E+01, +4.98313680E+00, +3.76303000E-02, +2.62573350E-01
+4.50476570E+01, +4.98328050E+00, +3.77834500E-02, +2.63564200E-01
+4.50476570E+01, +4.98239250E+00, +3.79287400E-02, +2.64607410E-01
+4.50488320E+01, +4.98329350E+00, +3.80766400E-02, +2.65630990E-01
+4.50480490E+01, +4.98305850E+00, +3.82389500E-02, +2.66658500E-01
+4.50479180E+01, +4.98339800E+00, +3.83790100E-02, +2.67640190E-01
+4.50489620E+01, +4.98345020E+00, +3.85308400E-02, +2.68679480E-01
+4.50462210E+01, +4.98279730E+00, +3.86787500E-02, +2.69708290E-01
+4.50470050E+01, +4.98296710E+00, +3.88318900E-02, +2.70720090E-01
+4.50470050E+01, +4.98352860E+00, +3.89889600E-02, +2.71758070E-01
+4.50464820E+01, +4.98325440E+00, +3.91316400E-02, +2.72775140E-01
+4.50473960E+01, +4.98317600E+00, +3.92821600E-02, +2.73773850E-01
+4.50471350E+01, +4.98270590E+00, +3.94313800E-02, +2.74796120E-01
+4.50487010E+01, +4.98279730E+00, +3.95858300E-02, +2.75826240E-01
+4.50483100E+01, +4.98281040E+00, +3.97272000E-02, +2.76826260E-01
+4.50487010E+01, +4.98284960E+00, +3.98777200E-02, +2.77851150E-01
+4.50481790E+01, +4.98232720E+00, +4.00269400E-02, +2.78893050E-01
+4.50481790E+01, +4.98252310E+00, +4.01814000E-02, +2.79907470E-01
+4.50481790E+01, +4.98245780E+00, +4.03384700E-02, +2.80938900E-01
+4.50447860E+01, +4.98239250E+00, +4.04772100E-02, +2.81944150E-01
+4.50454380E+01, +4.98202690E+00, +4.06264300E-02, +2.82963810E-01
+4.50467440E+01, +4.98194860E+00, +4.07835000E-02, +2.83983480E-01
+4.50472660E+01, +4.98214440E+00, +4.09418800E-02, +2.85022770E-01
+4.50463520E+01, +4.98218360E+00, +4.10832400E-02, +2.86021480E-01
+4.50467440E+01, +4.98211830E+00, +4.12350800E-02, +2.87045050E-01
+4.50475270E+01, +4.98200080E+00, +4.13908400E-02, +2.88076490E-01
+4.50473960E+01, +4.98202690E+00, +4.15348200E-02, +2.89100070E-01
+4.50472660E+01, +4.98192240E+00, +4.16866600E-02, +2.90087000E-01
+4.50480490E+01, +4.98190940E+00, +4.18306400E-02, +2.91117120E-01
+4.50473960E+01, +4.98173960E+00, +4.19811900E-02, +2.92156410E-01
+4.50451770E+01, +4.98189630E+00, +4.21369500E-02, +2.93186530E-01
+4.50458300E+01, +4.98154380E+00, +4.22848600E-02, +2.94208830E-01
+4.50447860E+01, +4.98109980E+00, +4.24380000E-02, +2.95185290E-01
+4.50451770E+01, +4.98108670E+00, +4.25859100E-02, +2.96208870E-01
+4.50462210E+01, +4.98123040E+00, +4.27338200E-02, +2.97246840E-01
+4.50460910E+01, +4.98154380E+00, +4.28974300E-02, +2.98286130E-01
+4.50464820E+01, +4.98129570E+00, +4.30270200E-02, +2.99279610E-01
+4.50473960E+01, +4.98106060E+00, +4.31867100E-02, +3.00299260E-01
+4.50462210E+01, +4.98109980E+00, +4.33424700E-02, +3.01326760E-01
