Vin, Vout, TC, Iin, Iout
+4.50579690E+01, +5.02023500E+00, +2.22950000E+01, +1.32200000E-04, +3.93000000E-06
+4.50596650E+01, +5.04530680E+00, +2.23310000E+01, +1.34820000E-04, +2.62000000E-06
+4.50566630E+01, +5.01254380E+00, +2.23150000E+01, +1.66230000E-04, +2.61780000E-04
+4.50570550E+01, +5.01276580E+00, +2.23700000E+01, +3.16760000E-04, +1.28798000E-03
+4.50594040E+01, +5.01258290E+00, +2.24410000E+01, +4.62050000E-04, +2.31287000E-03
+4.50548360E+01, +5.01191700E+00, +2.24760000E+01, +6.03410000E-04, +3.31682000E-03
+4.50560110E+01, +5.01126410E+00, +2.25830000E+01, +7.51320000E-04, +4.36657000E-03
+4.50607100E+01, +5.01098980E+00, +2.26670000E+01, +8.96610000E-04, +5.37837000E-03
+4.50601870E+01, +5.01080700E+00, +2.27480000E+01, +1.04060000E-03, +6.41504000E-03
+4.50577080E+01, +5.01046750E+00, +2.28250000E+01, +1.18327000E-03, +7.40066000E-03
+4.50590130E+01, +5.00987990E+00, +2.29090000E+01, +1.31547000E-03, +8.44649000E-03
+4.50595350E+01, +5.00961870E+00, +2.30000000E+01, +1.47254000E-03, +9.48447000E-03
+4.50599260E+01, +5.00916170E+00, +2.30640000E+01, +1.59820000E-03, +1.05015000E-02
+4.50574460E+01, +5.00863940E+00, +2.31680000E+01, +1.76574000E-03, +1.15355500E-02
+4.50575770E+01, +5.00857410E+00, +2.32620000E+01, +1.89532000E-03, +1.25277200E-02
+4.50596650E+01, +5.00789510E+00, +2.33460000E+01, +2.04192000E-03, +1.35787900E-02
+4.50578380E+01, +5.00779060E+00, +2.34620000E+01, +2.18721000E-03, +1.46141500E-02
+4.50574460E+01, +5.00733360E+00, +2.35390000E+01, +2.33250000E-03, +1.56442700E-02
+4.50579690E+01, +5.00685040E+00, +2.36460000E+01, +2.48565000E-03, +1.66312000E-02
+4.50583600E+01, +5.00639340E+00, +2.37370000E+01, +2.62570000E-03, +1.76770300E-02
+4.50603180E+01, +5.00615830E+00, +2.38170000E+01, +2.76052000E-03, +1.87254800E-02
+4.50599260E+01, +5.00591020E+00, +2.39080000E+01, +2.90843000E-03, +1.97569100E-02
+4.50564020E+01, +5.00557070E+00, +2.40270000E+01, +3.05634000E-03, +2.07883400E-02
+4.50574460E+01, +5.00525730E+00, +2.41210000E+01, +3.20294000E-03, +2.17975500E-02
+4.50578380E+01, +5.00480030E+00, +2.42250000E+01, +3.34169000E-03, +2.28342100E-02
+4.50564020E+01, +5.00490480E+00, +2.43250000E+01, +3.49483000E-03, +2.38695700E-02
+4.50564020E+01, +5.00448690E+00, +2.44350000E+01, +3.63227000E-03, +2.49036200E-02
+4.50586210E+01, +5.00387320E+00, +2.45190000E+01, +3.77756000E-03, +2.58866300E-02
+4.50586210E+01, +5.00363810E+00, +2.46190000E+01, +3.92547000E-03, +2.69337700E-02
+4.50590130E+01, +5.00335080E+00, +2.47220000E+01, +4.06814000E-03, +2.79691300E-02
+4.50579690E+01, +5.00325940E+00, +2.48290000E+01, +4.21343000E-03, +2.90136500E-02
+4.50579690E+01, +5.00286770E+00, +2.49390000E+01, +4.35218000E-03, +3.00136700E-02
+4.50584910E+01, +5.00289380E+00, +2.50520000E+01, +4.49223000E-03, +3.10176100E-02
+4.50594040E+01, +5.00264570E+00, +2.51580000E+01, +4.64407000E-03, +3.20686800E-02
+4.50560110E+01, +5.00226700E+00, +2.52710000E+01, +4.78805000E-03, +3.30844000E-02
+4.50566630E+01, +5.00161410E+00, +2.53590000E+01, +4.93596000E-03, +3.41315400E-02
+4.50578380E+01, +5.00135290E+00, +2.54650000E+01, +5.07077000E-03, +3.51368000E-02
+4.50575770E+01, +5.00132680E+00, +2.55910000E+01, +5.21868000E-03, +3.61708500E-02
+4.50573160E+01, +5.00092200E+00, +2.56950000E+01, +5.36136000E-03, +3.72049000E-02
+4.50570550E+01, +5.00072620E+00, +2.57920000E+01, +5.51450000E-03, +3.82428800E-02
+4.50566630E+01, +5.00042580E+00, +2.59240000E+01, +5.65194000E-03, +3.92389700E-02
+4.50575770E+01, +5.00025610E+00, +2.60310000E+01, +5.80377000E-03, +4.02743300E-02
+4.50592740E+01, +4.99996880E+00, +2.61410000E+01, +5.92812000E-03, +4.13214700E-02
+4.50571850E+01, +4.99991650E+00, +2.62700000E+01, +6.09697000E-03, +4.23450700E-02
+4.50579690E+01, +4.99972070E+00, +2.63670000E+01, +6.23441000E-03, +4.33987500E-02
+4.50550970E+01, +4.99921140E+00, +2.64770000E+01, +6.36923000E-03, +4.43843700E-02
+4.50573160E+01, +4.99896330E+00, +2.65830000E+01, +6.51321000E-03, +4.54171100E-02
+4.50554890E+01, +4.99889800E+00, +2.67100000E+01, +6.66766000E-03, +4.64498600E-02
+4.50567940E+01, +4.99853240E+00, +2.68230000E+01, +6.80772000E-03, +4.74812900E-02
+4.50570550E+01, +4.99831040E+00, +2.69490000E+01, +6.94254000E-03, +4.84878500E-02
+4.50573160E+01, +4.99808840E+00, +2.70420000E+01, +7.10354000E-03, +4.95284500E-02
+4.50566630E+01, +4.99786640E+00, +2.71850000E+01, +7.24097000E-03, +5.05323900E-02
+4.50567940E+01, +4.99760530E+00, +2.72690000E+01, +7.39150000E-03, +5.15782200E-02
+4.50573160E+01, +4.99785340E+00, +2.74240000E+01, +7.53286000E-03, +5.25769400E-02
+4.50570550E+01, +4.99755300E+00, +2.75500000E+01, +7.68077000E-03, +5.36201600E-02
+4.50578380E+01, +4.99669120E+00, +2.76560000E+01, +7.82213000E-03, +5.46358800E-02
+4.50550970E+01, +4.99760530E+00, +2.77730000E+01, +7.96350000E-03, +5.56869500E-02
+4.50552280E+01, +4.99770970E+00, +2.79120000E+01, +8.11272000E-03, +5.67223100E-02
+4.50561410E+01, +4.99751390E+00, +2.80510000E+01, +8.26324000E-03, +5.77210200E-02
+4.50570550E+01, +4.99829730E+00, +2.81770000E+01, +8.41377000E-03, +5.87498300E-02
+4.50554890E+01, +4.99825820E+00, +2.83060000E+01, +8.55775000E-03, +5.98022100E-02
+4.50557500E+01, +4.99906780E+00, +2.84320000E+01, +8.71351000E-03, +6.08401900E-02
+4.50561410E+01, +4.99939420E+00, +2.85840000E+01, +8.85095000E-03, +6.18284200E-02
+4.50558800E+01, +4.99872830E+00, +2.87070000E+01, +8.99886000E-03, +6.28716400E-02
+4.50562720E+01, +5.00039970E+00, +2.88780000E+01, +9.15986000E-03, +6.39083300E-02
+4.50569240E+01, +5.00041280E+00, +2.90330000E+01, +9.29337000E-03, +6.49371400E-02
+4.50569240E+01, +5.00067390E+00, +2.91620000E+01, +9.45436000E-03, +6.59725000E-02
+4.50549670E+01, +5.00039970E+00, +2.92950000E+01, +9.58395000E-03, +6.69803700E-02
+4.50544440E+01, +5.00080450E+00, +2.94530000E+01, +9.73971000E-03, +6.80144200E-02
+4.50545750E+01, +5.00188830E+00, +2.96050000E+01, +9.89809000E-03, +6.90445500E-02
+4.50549670E+01, +4.99994270E+00, +2.97180000E+01, +1.00355300E-02, +7.00851400E-02
+4.50554890E+01, +5.00084370E+00, +2.98630000E+01, +1.01808200E-02, +7.10602900E-02
+4.50553580E+01, +5.00171860E+00, +3.00350000E+01, +1.03313400E-02, +7.20891100E-02
+4.50548360E+01, +5.00173160E+00, +3.02120000E+01, +1.04844900E-02, +7.31244700E-02
+4.50565330E+01, +5.00139210E+00, +3.03450000E+01, +1.06166900E-02, +7.41650600E-02
+4.50564020E+01, +5.00160100E+00, +3.04710000E+01, +1.07672200E-02, +7.51572300E-02
+4.50570550E+01, +5.00195360E+00, +3.06450000E+01, +1.09308300E-02, +7.61991300E-02
+4.50562720E+01, +5.00162720E+00, +3.07710000E+01, +1.10643400E-02, +7.72305600E-02
+4.50535310E+01, +5.00148350E+00, +3.09330000E+01, +1.12253400E-02, +7.82816300E-02
+4.50545750E+01, +5.00100040E+00, +3.11010000E+01, +1.13627800E-02, +7.93104500E-02
+4.50561410E+01, +4.99969460E+00, +3.12370000E+01, +1.15054500E-02, +8.03130800E-02
+4.50543140E+01, +5.00132680E+00, +3.13720000E+01, +1.16533600E-02, +8.13340400E-02
+4.50549670E+01, +5.00084370E+00, +3.15400000E+01, +1.18025800E-02, +8.23759500E-02
+4.50544440E+01, +5.00073920E+00, +3.16760000E+01, +1.19609600E-02, +8.34204700E-02
+4.50549670E+01, +5.00043890E+00, +3.18180000E+01, +1.20826900E-02, +8.44087400E-02
+4.50544440E+01, +5.00047800E+00, +3.19610000E+01, +1.22449900E-02, +8.54571900E-02
+4.50547050E+01, +4.99970760E+00, +3.21120000E+01, +1.23876600E-02, +8.64990900E-02
+4.50561410E+01, +4.99959010E+00, +3.22610000E+01, +1.25342600E-02, +8.75370700E-02
+4.50566630E+01, +4.99919840E+00, +3.24070000E+01, +1.26874100E-02, +8.85802800E-02
+4.50562720E+01, +4.99799700E+00, +3.25450000E+01, +1.28222300E-02, +8.95645900E-02
+4.50534000E+01, +4.99833650E+00, +3.26520000E+01, +1.29662100E-02, +9.06025700E-02
+4.50531390E+01, +4.99814060E+00, +3.27880000E+01, +1.31128100E-02, +9.16183000E-02
+4.50544440E+01, +4.99776200E+00, +3.29360000E+01, +1.32554800E-02, +9.26575800E-02
+4.50552280E+01, +4.99769670E+00, +3.30790000E+01, +1.33994600E-02, +9.36445100E-02
+4.50545750E+01, +4.99712210E+00, +3.32310000E+01, +1.35421400E-02, +9.46733300E-02
+4.50550970E+01, +4.99665200E+00, +3.33530000E+01, +1.36952800E-02, +9.57243900E-02
+4.50545750E+01, +4.99627330E+00, +3.35050000E+01, +1.38405700E-02, +9.67584400E-02
+4.50562720E+01, +4.99602520E+00, +3.36410000E+01, +1.39832400E-02, +9.77558400E-02
+4.50557500E+01, +4.99597300E+00, +3.37730000E+01, +1.41219900E-02, +9.87912000E-02
+4.50545750E+01, +4.99556820E+00, +3.39120000E+01, +1.42725200E-02, +9.98318000E-02
+4.50554890E+01, +4.99546370E+00, +3.40670000E+01, +1.44217300E-02, +1.00858000E-01
+4.50541830E+01, +4.99428850E+00, +3.41840000E+01, +1.45657200E-02, +1.01907750E-01
+4.50539220E+01, +4.99441910E+00, +3.43520000E+01, +1.47123200E-02, +1.02911700E-01
+4.50539220E+01, +4.99430160E+00, +3.44810000E+01, +1.48536800E-02, +1.03954910E-01
+4.50548360E+01, +4.99414490E+00, +3.46070000E+01, +1.49989700E-02, +1.04977200E-01
+4.50547050E+01, +4.99393590E+00, +3.47490000E+01, +1.51455700E-02, +1.06021720E-01
+4.50558800E+01, +4.99343970E+00, +3.48690000E+01, +1.52790800E-02, +1.07006040E-01
+4.50541830E+01, +4.99325690E+00, +3.50180000E+01, +1.54361500E-02, +1.08053180E-01
+4.50537920E+01, +4.99004460E+00, +3.51390000E+01, +1.55683500E-02, +1.09088540E-01
+4.50556190E+01, +4.99171600E+00, +3.52990000E+01, +1.57228100E-02, +1.10123900E-01
+4.50550970E+01, +4.99146790E+00, +3.54360000E+01, +1.58667900E-02, +1.11161870E-01
+4.50550970E+01, +4.99153320E+00, +3.55740000E+01, +1.59963700E-02, +1.12137020E-01
+4.50549670E+01, +4.99090640E+00, +3.56820000E+01, +1.61416600E-02, +1.13171070E-01
+4.50526170E+01, +4.99080200E+00, +3.58390000E+01, +1.62935000E-02, +1.14214290E-01
+4.50534000E+01, +4.99069750E+00, +3.59630000E+01, +1.64466400E-02, +1.15249650E-01
+4.50536610E+01, +4.99068440E+00, +3.61230000E+01, +1.65945500E-02, +1.16249670E-01
+4.50537920E+01, +4.98875180E+00, +3.62570000E+01, +1.67189000E-02, +1.17291580E-01
+4.50532700E+01, +4.98975730E+00, +3.63950000E+01, +1.68799000E-02, +1.18324320E-01
+4.50539220E+01, +4.98965290E+00, +3.65290000E+01, +1.70317300E-02, +1.19341350E-01
+4.50535310E+01, +4.98933950E+00, +3.66820000E+01, +1.71639300E-02, +1.20363620E-01
+4.50534000E+01, +4.98943090E+00, +3.68350000E+01, +1.73157700E-02, +1.21384590E-01
+4.50537920E+01, +4.98901300E+00, +3.69730000E+01, +1.74584400E-02, +1.22425180E-01
+4.50543140E+01, +4.98872570E+00, +3.71260000E+01, +1.76063500E-02, +1.23463160E-01
+4.50545750E+01, +4.98885630E+00, +3.72790000E+01, +1.77516400E-02, +1.24491970E-01
+4.50492230E+01, +4.98918280E+00, +3.74230000E+01, +1.78956200E-02, +1.25493300E-01
+4.50514420E+01, +4.99065830E+00, +3.75600000E+01, +1.80500700E-02, +1.26536540E-01
+4.50507900E+01, +4.98608800E+00, +3.77140000E+01, +1.81835800E-02, +1.27574520E-01
+4.50503980E+01, +4.98790310E+00, +3.78570000E+01, +1.83419600E-02, +1.28605950E-01
+4.50506590E+01, +4.98834700E+00, +3.80390000E+01, +1.84911800E-02, +1.29607280E-01
+4.50514420E+01, +4.98867350E+00, +3.81930000E+01, +1.86469400E-02, +1.30650500E-01
+4.50514420E+01, +4.98890850E+00, +3.83780000E+01, +1.87883100E-02, +1.31689780E-01
+4.50518340E+01, +4.98899990E+00, +3.84930000E+01, +1.89257400E-02, +1.32697650E-01
+4.50520950E+01, +4.99044940E+00, +3.87230000E+01, +1.91011400E-02, +1.33734320E-01
+4.50519640E+01, +4.99054080E+00, +3.88990000E+01, +1.92529800E-02, +1.34734340E-01
+4.50528780E+01, +4.99020130E+00, +3.90330000E+01, +1.93956500E-02, +1.35768390E-01
+4.50523560E+01, +4.98913050E+00, +3.91250000E+01, +1.95186900E-02, +1.36809010E-01
+4.50528780E+01, +4.98815120E+00, +3.91890000E+01, +1.96495800E-02, +1.37829970E-01
+4.50519640E+01, +4.98641440E+00, +3.92530000E+01, +1.97700000E-02, +1.38835220E-01
+4.50524870E+01, +4.98843840E+00, +3.94610000E+01, +1.99296900E-02, +1.39865350E-01
+4.50519640E+01, +4.98901300E+00, +3.96720000E+01, +2.00933100E-02, +1.40917720E-01
+4.50535310E+01, +4.98980960E+00, +3.98860000E+01, +2.02529900E-02, +1.41945230E-01
+4.50522260E+01, +4.99052780E+00, +4.01320000E+01, +2.04061400E-02, +1.42936080E-01
+4.50530090E+01, +4.98803360E+00, +4.03580000E+01, +2.05632100E-02, +1.43988460E-01
+4.50509200E+01, +4.98873880E+00, +4.05280000E+01, +2.07071900E-02, +1.45019890E-01
+4.50506590E+01, +4.98717180E+00, +4.06520000E+01, +2.08446300E-02, +1.46060490E-01
+4.50510510E+01, +4.98708040E+00, +4.07510000E+01, +2.09781600E-02, +1.47110260E-01
+4.50513120E+01, +4.98736770E+00, +4.08570000E+01, +2.11182100E-02, +1.48089330E-01
+4.50518340E+01, +4.98822950E+00, +4.09810000E+01, +2.12779000E-02, +1.49129930E-01
+4.50518340E+01, +4.98813810E+00, +4.11890000E+01, +2.14258100E-02, +1.50160050E-01
+4.50524870E+01, +4.98800750E+00, +4.13480000E+01, +2.15724100E-02, +1.51198030E-01
+4.50526170E+01, +4.98779860E+00, +4.14890000E+01, +2.17072300E-02, +1.52201970E-01
+4.50520950E+01, +4.98847760E+00, +4.16450000E+01, +2.18551400E-02, +1.53222930E-01
+4.50522260E+01, +4.98846460E+00, +4.18150000E+01, +2.20095900E-02, +1.54259600E-01
+4.50543140E+01, +4.98915660E+00, +4.19940000E+01, +2.21745200E-02, +1.55280560E-01
+4.50531390E+01, +4.98500420E+00, +4.21340000E+01, +2.22923200E-02, +1.56325090E-01
+4.50494850E+01, +4.98461240E+00, +4.22590000E+01, +2.24310700E-02, +1.57336910E-01
+4.50510510E+01, +4.98572240E+00, +4.24250000E+01, +2.25855200E-02, +1.58357870E-01
+4.50517030E+01, +4.98617940E+00, +4.26130000E+01, +2.27399700E-02, +1.59395840E-01
+4.50511810E+01, +4.98619250E+00, +4.27350000E+01, +2.28891900E-02, +1.60432510E-01
+4.50515730E+01, +4.98563100E+00, +4.28880000E+01, +2.30200800E-02, +1.61445620E-01
+4.50526170E+01, +4.98582680E+00, +4.30570000E+01, +2.31810800E-02, +1.62473130E-01
+4.50520950E+01, +4.98486050E+00, +4.32040000E+01, +2.33132800E-02, +1.63483620E-01
+4.50514420E+01, +4.98484750E+00, +4.33510000E+01, +2.34716600E-02, +1.64520280E-01
+4.50517030E+01, +4.98484750E+00, +4.35170000E+01, +2.36169500E-02, +1.65517690E-01
+4.50522260E+01, +4.98500420E+00, +4.36770000E+01, +2.37622400E-02, +1.66560900E-01
+4.50526170E+01, +4.98536980E+00, +4.38560000E+01, +2.39140800E-02, +1.67588400E-01
+4.50510510E+01, +4.98594430E+00, +4.40060000E+01, +2.40632900E-02, +1.68640790E-01
+4.50488320E+01, +4.98692370E+00, +4.41370000E+01, +2.42190600E-02, +1.69673530E-01
+4.50488320E+01, +4.98163520E+00, +4.42800000E+01, +2.43290100E-02, +1.70661770E-01
+4.50494850E+01, +4.98262760E+00, +4.44370000E+01, +2.44834600E-02, +1.71695820E-01
+4.50510510E+01, +4.98375060E+00, +4.46290000E+01, +2.46431500E-02, +1.72737730E-01
+4.50500070E+01, +4.98453410E+00, +4.48300000E+01, +2.47949800E-02, +1.73758690E-01
+4.50501370E+01, +4.98448180E+00, +4.49860000E+01, +2.49350400E-02, +1.74756090E-01
+4.50505290E+01, +4.98471690E+00, +4.51750000E+01, +2.50842600E-02, +1.75797990E-01
+4.50509200E+01, +4.98472990E+00, +4.53600000E+01, +2.52426400E-02, +1.76824190E-01
+4.50506590E+01, +4.98420760E+00, +4.55710000E+01, +2.53970900E-02, +1.77872640E-01
+4.50505290E+01, +4.98470380E+00, +4.57210000E+01, +2.55332200E-02, +1.78863520E-01
+4.50518340E+01, +4.98480830E+00, +4.59060000E+01, +2.56850500E-02, +1.79918520E-01
+4.50518340E+01, +4.98439040E+00, +4.60910000E+01, +2.58382000E-02, +1.80938170E-01
+4.50494850E+01, +4.98444270E+00, +4.62640000E+01, +2.59834900E-02, +1.81977460E-01
+4.50493540E+01, +4.98409010E+00, +4.64650000E+01, +2.61444900E-02, +1.83020670E-01
+4.50487010E+01, +4.98372450E+00, +4.66460000E+01, +2.62963200E-02, +1.84015450E-01
+4.50500070E+01, +4.98043380E+00, +4.68250000E+01, +2.64259000E-02, +1.85049500E-01
+4.50492230E+01, +4.98254920E+00, +4.69270000E+01, +2.65738100E-02, +1.86092720E-01
+4.50501370E+01, +4.98420760E+00, +4.69400000E+01, +2.67007800E-02, +1.87138550E-01
+4.50498760E+01, +4.98486050E+00, +4.71040000E+01, +2.68447600E-02, +1.88126780E-01
+4.50511810E+01, +4.98469080E+00, +4.73180000E+01, +2.70096800E-02, +1.89158230E-01
+4.50502680E+01, +4.98436430E+00, +4.75000000E+01, +2.71693700E-02, +1.90205370E-01
+4.50505290E+01, +4.98445570E+00, +4.76940000E+01, +2.73133600E-02, +1.91235490E-01
+4.50506590E+01, +4.98397260E+00, +4.78690000E+01, +2.74665000E-02, +1.92277400E-01
+4.50485710E+01, +4.98371140E+00, +4.80810000E+01, +2.76157200E-02, +1.93274800E-01
+4.50492230E+01, +4.98390730E+00, +4.81920000E+01, +2.77557700E-02, +1.94293140E-01
+4.50500070E+01, +4.98388120E+00, +4.84210000E+01, +2.79010600E-02, +1.95324570E-01
+4.50485710E+01, +4.98363310E+00, +4.86010000E+01, +2.80555200E-02, +1.96379570E-01
+4.50492230E+01, +4.98394650E+00, +4.87310000E+01, +2.82034200E-02, +1.97362570E-01
+4.50498760E+01, +4.98386810E+00, +4.88370000E+01, +2.83526400E-02, +1.98401850E-01
+4.50490930E+01, +4.98403790E+00, +4.90370000E+01, +2.85044800E-02, +1.99433320E-01
+4.50494850E+01, +4.98405090E+00, +4.92360000E+01, +2.86615500E-02, +2.00473910E-01
+4.50501370E+01, +4.98235340E+00, +4.93910000E+01, +2.87872000E-02, +2.01458220E-01
+4.50500070E+01, +4.98287570E+00, +4.95380000E+01, +2.89403500E-02, +2.02502750E-01
+4.50501370E+01, +4.98307160E+00, +4.97110000E+01, +2.90790900E-02, +2.03535490E-01
+4.50500070E+01, +4.98308460E+00, +4.99290000E+01, +2.92374700E-02, +2.04573470E-01
+4.50466130E+01, +4.98321520E+00, +5.00550000E+01, +2.93866900E-02, +2.05611440E-01
+4.50476570E+01, +4.98287570E+00, +5.02740000E+01, +2.95280600E-02, +2.06616700E-01
+4.50475270E+01, +4.98218360E+00, +5.04530000E+01, +2.96851300E-02, +2.07648130E-01
+4.50487010E+01, +4.98231420E+00, +5.06580000E+01, +2.98330400E-02, +2.08684800E-01
+4.50488320E+01, +4.98235340E+00, +5.08720000E+01, +2.99914200E-02, +2.09734570E-01
+4.50480490E+01, +4.98204000E+00, +5.10700000E+01, +3.01275400E-02, +2.10709720E-01
+4.50496150E+01, +4.98180490E+00, +5.12910000E+01, +3.02728300E-02, +2.11752930E-01
+4.50497460E+01, +4.98185720E+00, +5.14770000E+01, +3.04338300E-02, +2.12793520E-01
+4.50493540E+01, +4.97987230E+00, +5.16300000E+01, +3.05660300E-02, +2.13804010E-01
+4.50494850E+01, +4.98146540E+00, +5.17830000E+01, +3.07191800E-02, +2.14847230E-01
+4.50506590E+01, +4.98132180E+00, +5.19450000E+01, +3.08657800E-02, +2.15860330E-01
+4.50510510E+01, +4.98142620E+00, +5.20970000E+01, +3.10123800E-02, +2.16906170E-01
+4.50468740E+01, +4.98121730E+00, +5.22200000E+01, +3.11707600E-02, +2.17938910E-01
+4.50479180E+01, +4.98085170E+00, +5.24560000E+01, +3.13225900E-02, +2.18965100E-01
+4.50476570E+01, +4.98078640E+00, +5.26010000E+01, +3.14613400E-02, +2.19976900E-01
+4.50490930E+01, +4.98052520E+00, +5.27850000E+01, +3.16092500E-02, +2.20991360E-01
+4.50498760E+01, +4.98034240E+00, +5.29900000E+01, +3.17676300E-02, +2.22039810E-01
+4.50481790E+01, +4.97961120E+00, +5.31980000E+01, +3.19286200E-02, +2.23073860E-01
+4.50480490E+01, +4.97745660E+00, +5.34000000E+01, +3.20490500E-02, +2.24046390E-01
+4.50487010E+01, +4.97885380E+00, +5.35320000E+01, +3.21982600E-02, +2.25110550E-01
+4.50502680E+01, +4.97961120E+00, +5.36860000E+01, +3.23448600E-02, +2.26136740E-01
+4.50490930E+01, +4.98015960E+00, +5.38490000E+01, +3.24862300E-02, +2.27187810E-01
+4.50494850E+01, +4.98053830E+00, +5.40470000E+01, +3.26472200E-02, +2.28229710E-01
+4.50503980E+01, +4.97985930E+00, +5.42340000E+01, +3.27912100E-02, +2.29202250E-01
+4.50473960E+01, +4.98001600E+00, +5.44210000E+01, +3.29430400E-02, +2.30258550E-01
+4.50470050E+01, +4.97985930E+00, +5.46130000E+01, +3.30922600E-02, +2.31289990E-01
+4.50472660E+01, +4.97982010E+00, +5.48860000E+01, +3.32440900E-02, +2.32324040E-01
+4.50475270E+01, +4.97711700E+00, +5.51440000E+01, +3.33946200E-02, +2.33321440E-01
+4.50489620E+01, +4.97965030E+00, +5.52950000E+01, +3.35228900E-02, +2.34331930E-01
+4.50484400E+01, +4.97996370E+00, +5.54640000E+01, +3.36799700E-02, +2.35369910E-01
+4.50484400E+01, +4.98004210E+00, +5.56050000E+01, +3.38278700E-02, +2.36419670E-01
+4.50477880E+01, +4.97998980E+00, +5.57670000E+01, +3.39718600E-02, +2.37458950E-01
+4.50487010E+01, +4.98000290E+00, +5.59710000E+01, +3.41210700E-02, +2.38445880E-01
+4.50479180E+01, +4.98023790E+00, +5.61160000E+01, +3.42689800E-02, +2.39478620E-01
+4.50488320E+01, +4.98034240E+00, +5.62970000E+01, +3.44234300E-02, +2.40523150E-01
