Vin, Vout, TC, Iin, Iout
+4.00433760E+01, +4.98193550E+00, +2.28690000E+01, +1.43980000E-04, -1.31000000E-06
+4.00450730E+01, +4.99723960E+00, +2.28710000E+01, +1.50530000E-04, +2.62000000E-06
+4.00424620E+01, +5.00685040E+00, +2.28640000E+01, +1.96340000E-04, +4.38490000E-04
+4.00419400E+01, +5.00530960E+00, +2.29360000E+01, +3.71730000E-04, +1.47778000E-03
+4.00433760E+01, +5.00481330E+00, +2.29740000E+01, +5.24880000E-04, +2.50005000E-03
+4.00433760E+01, +5.00456520E+00, +2.30260000E+01, +6.79330000E-04, +3.49745000E-03
+4.00435070E+01, +5.00418660E+00, +2.31000000E+01, +8.40330000E-04, +4.52757000E-03
+4.00438980E+01, +5.00345530E+00, +2.31550000E+01, +9.97400000E-04, +5.56162000E-03
+4.00424620E+01, +5.00331170E+00, +2.32390000E+01, +1.16363000E-03, +6.61923000E-03
+4.00438980E+01, +5.00269790E+00, +2.32810000E+01, +1.32725000E-03, +7.60224000E-03
+4.00420710E+01, +5.00237150E+00, +2.33590000E+01, +1.48039000E-03, +8.64414000E-03
+4.00437680E+01, +5.00195360E+00, +2.34240000E+01, +1.63747000E-03, +9.67557000E-03
+4.00428540E+01, +5.00154880E+00, +2.35080000E+01, +1.79715000E-03, +1.06899900E-02
+4.00441590E+01, +5.00136600E+00, +2.35720000E+01, +1.96339000E-03, +1.17240400E-02
+4.00432460E+01, +5.00110480E+00, +2.36560000E+01, +2.11653000E-03, +1.27227500E-02
+4.00416790E+01, +5.00070000E+00, +2.37180000E+01, +2.28276000E-03, +1.37633400E-02
+4.00412880E+01, +5.00013850E+00, +2.38110000E+01, +2.43460000E-03, +1.48026300E-02
+4.00420710E+01, +5.00000800E+00, +2.38920000E+01, +2.59822000E-03, +1.58196700E-02
+4.00420710E+01, +4.99945950E+00, +2.39760000E+01, +2.74612000E-03, +1.68275400E-02
+4.00422010E+01, +4.99960320E+00, +2.40440000E+01, +2.91628000E-03, +1.78642100E-02
+4.00423320E+01, +4.99914610E+00, +2.41540000E+01, +3.07728000E-03, +1.89048000E-02
+4.00415490E+01, +4.99875440E+00, +2.42380000E+01, +3.24352000E-03, +1.99467100E-02
+4.00419400E+01, +4.99849320E+00, +2.43060000E+01, +3.40059000E-03, +2.09663600E-02
+4.00435070E+01, +4.99819290E+00, +2.43930000E+01, +3.55766000E-03, +2.19729400E-02
+4.00415490E+01, +4.99782720E+00, +2.44870000E+01, +3.71735000E-03, +2.30030700E-02
+4.00429840E+01, +4.99777500E+00, +2.45670000E+01, +3.87573000E-03, +2.40528200E-02
+4.00427230E+01, +4.99731800E+00, +2.46510000E+01, +4.03803000E-03, +2.50829500E-02
+4.00414180E+01, +4.99709600E+00, +2.47550000E+01, +4.19641000E-03, +2.60764200E-02
+4.00407660E+01, +4.99658670E+00, +2.48390000E+01, +4.35610000E-03, +2.70973800E-02
+4.00412880E+01, +4.99640390E+00, +2.49580000E+01, +4.51972000E-03, +2.81432100E-02
+4.00408960E+01, +4.99628640E+00, +2.50460000E+01, +4.67155000E-03, +2.91811900E-02
+4.00411570E+01, +4.99589460E+00, +2.51430000E+01, +4.82993000E-03, +3.01746600E-02
+4.00410270E+01, +4.99565960E+00, +2.52560000E+01, +4.99093000E-03, +3.11956300E-02
+4.00422010E+01, +4.99542460E+00, +2.53460000E+01, +5.15193000E-03, +3.22427700E-02
+4.00415490E+01, +4.99498060E+00, +2.54460000E+01, +5.30900000E-03, +3.32650400E-02
+4.00429840E+01, +4.99492830E+00, +2.55370000E+01, +5.48178000E-03, +3.43095600E-02
+4.00410270E+01, +4.99453660E+00, +2.56020000E+01, +5.62707000E-03, +3.53121900E-02
+4.00420710E+01, +4.99421010E+00, +2.57310000E+01, +5.79068000E-03, +3.63449400E-02
+4.00424620E+01, +4.99385760E+00, +2.58210000E+01, +5.94252000E-03, +3.73803000E-02
+4.00427230E+01, +4.99371390E+00, +2.59280000E+01, +6.10875000E-03, +3.84169600E-02
+4.00410270E+01, +4.99351810E+00, +2.60180000E+01, +6.26582000E-03, +3.94052000E-02
+4.00391990E+01, +4.99359640E+00, +2.61200000E+01, +6.43337000E-03, +4.04562700E-02
+4.00393300E+01, +4.99324380E+00, +2.61970000E+01, +6.59044000E-03, +4.14890100E-02
+4.00407660E+01, +4.99321770E+00, +2.62760000E+01, +6.75405000E-03, +4.25296300E-02
+4.00401130E+01, +4.99299570E+00, +2.63750000E+01, +6.90458000E-03, +4.35558200E-02
+4.00403740E+01, +4.99296960E+00, +2.64610000E+01, +7.07605000E-03, +4.45584600E-02
+4.00405050E+01, +4.99308710E+00, +2.65750000E+01, +7.23443000E-03, +4.56029800E-02
+4.00407660E+01, +4.99257790E+00, +2.66750000E+01, +7.39412000E-03, +4.66318000E-02
+4.00412880E+01, +4.99261710E+00, +2.67980000E+01, +7.55773000E-03, +4.76619200E-02
+4.00411570E+01, +4.99283900E+00, +2.69070000E+01, +7.72266000E-03, +4.86632500E-02
+4.00406350E+01, +4.99311330E+00, +2.70140000E+01, +7.87973000E-03, +4.97051500E-02
+4.00415490E+01, +4.99327000E+00, +2.71400000E+01, +8.03418000E-03, +5.07169500E-02
+4.00414180E+01, +4.99392290E+00, +2.72560000E+01, +8.19518000E-03, +5.17536200E-02
+4.00420710E+01, +4.99423630E+00, +2.73760000E+01, +8.36272000E-03, +5.27458000E-02
+4.00398520E+01, +4.99398820E+00, +2.74760000E+01, +8.51587000E-03, +5.37719900E-02
+4.00399820E+01, +4.99505890E+00, +2.75960000E+01, +8.68079000E-03, +5.48191300E-02
+4.00385470E+01, +4.99533310E+00, +2.77120000E+01, +8.85357000E-03, +5.58544900E-02
+4.00410270E+01, +4.99516340E+00, +2.78670000E+01, +9.00802000E-03, +5.68911600E-02
+4.00406350E+01, +4.99632560E+00, +2.79710000E+01, +9.17949000E-03, +5.78911800E-02
+4.00397210E+01, +4.99595990E+00, +2.80870000E+01, +9.33656000E-03, +5.89330800E-02
+4.00401130E+01, +4.99640390E+00, +2.82160000E+01, +9.50279000E-03, +5.99789100E-02
+4.00399820E+01, +4.99658670E+00, +2.83450000E+01, +9.66641000E-03, +6.10064200E-02
+4.00405050E+01, +4.99688710E+00, +2.84750000E+01, +9.82610000E-03, +6.19998900E-02
+4.00412880E+01, +4.99662590E+00, +2.86090000E+01, +9.98841000E-03, +6.30470500E-02
+4.00424620E+01, +4.99761830E+00, +2.87580000E+01, +1.01507100E-02, +6.40719400E-02
+4.00407660E+01, +4.99740940E+00, +2.88550000E+01, +1.03156400E-02, +6.51164600E-02
+4.00411570E+01, +4.99669120E+00, +2.89610000E+01, +1.04700900E-02, +6.61374300E-02
+4.00398520E+01, +4.99739630E+00, +2.91220000E+01, +1.06284700E-02, +6.71361400E-02
+4.00388080E+01, +4.99692620E+00, +2.92660000E+01, +1.08012500E-02, +6.81714900E-02
+4.00402430E+01, +4.99653450E+00, +2.94040000E+01, +1.09609400E-02, +6.92147100E-02
+4.00398520E+01, +4.99626030E+00, +2.95600000E+01, +1.11271700E-02, +7.02618500E-02
+4.00399820E+01, +4.99654760E+00, +2.96960000E+01, +1.12777000E-02, +7.12265300E-02
+4.00394600E+01, +4.99599910E+00, +2.98140000E+01, +1.14478600E-02, +7.22710500E-02
+4.00403740E+01, +4.99581630E+00, +2.99480000E+01, +1.16075500E-02, +7.32933200E-02
+4.00391990E+01, +4.99550290E+00, +3.00450000E+01, +1.17593800E-02, +7.43496200E-02
+4.00399820E+01, +4.99500670E+00, +3.02220000E+01, +1.19230000E-02, +7.53601100E-02
+4.00415490E+01, +4.99495450E+00, +3.03350000E+01, +1.20709100E-02, +7.63627500E-02
+4.00395910E+01, +4.99462800E+00, +3.04690000E+01, +1.22436800E-02, +7.74242800E-02
+4.00398520E+01, +4.99405340E+00, +3.05890000E+01, +1.24138400E-02, +7.84570300E-02
+4.00398520E+01, +4.99333520E+00, +3.06990000E+01, +1.25761500E-02, +7.94832200E-02
+4.00377640E+01, +4.99364860E+00, +3.08500000E+01, +1.27306000E-02, +8.04897900E-02
+4.00378940E+01, +4.99328300E+00, +3.09540000E+01, +1.28968400E-02, +8.15028900E-02
+4.00398520E+01, +4.99294350E+00, +3.10860000E+01, +1.30591400E-02, +8.25500300E-02
+4.00391990E+01, +4.99221230E+00, +3.12060000E+01, +1.32201400E-02, +8.35945600E-02
+4.00384160E+01, +4.99041020E+00, +3.13160000E+01, +1.33654300E-02, +8.45841300E-02
+4.00393300E+01, +4.99141570E+00, +3.14480000E+01, +1.35290500E-02, +8.56234200E-02
+4.00391990E+01, +4.99149410E+00, +3.15540000E+01, +1.36848100E-02, +8.66574700E-02
+4.00394600E+01, +4.99112840E+00, +3.16700000E+01, +1.38536600E-02, +8.76797400E-02
+4.00394600E+01, +4.99051470E+00, +3.17920000E+01, +1.40107300E-02, +8.87308100E-02
+4.00393300E+01, +4.98839930E+00, +3.18870000E+01, +1.41717300E-02, +8.97295200E-02
+4.00399820E+01, +4.98997930E+00, +3.20090000E+01, +1.43301100E-02, +9.07596400E-02
+4.00408960E+01, +4.99007070E+00, +3.21270000E+01, +1.44845600E-02, +9.17753700E-02
+4.00406350E+01, +4.98939170E+00, +3.22440000E+01, +1.46534100E-02, +9.28212000E-02
+4.00394600E+01, +4.98945700E+00, +3.23630000E+01, +1.48131000E-02, +9.38133600E-02
+4.00382860E+01, +4.98903910E+00, +3.24960000E+01, +1.49754100E-02, +9.48487200E-02
+4.00385470E+01, +4.98832090E+00, +3.26180000E+01, +1.51377200E-02, +9.59024100E-02
+4.00388080E+01, +4.98849070E+00, +3.27250000E+01, +1.52987100E-02, +9.69299100E-02
+4.00385470E+01, +4.98815120E+00, +3.28610000E+01, +1.54479300E-02, +9.79364800E-02
+4.00378940E+01, +4.98782470E+00, +3.29450000E+01, +1.56154700E-02, +9.89495800E-02
+4.00377640E+01, +4.98755050E+00, +3.30870000E+01, +1.57699300E-02, +1.00000650E-01
+4.00394600E+01, +4.98713260E+00, +3.32260000E+01, +1.59335400E-02, +1.01042550E-01
+4.00382860E+01, +4.98743300E+00, +3.33420000E+01, +1.60906100E-02, +1.02087080E-01
+4.00389380E+01, +4.98585290E+00, +3.34550000E+01, +1.62489900E-02, +1.03081860E-01
+4.00388080E+01, +4.98599660E+00, +3.35560000E+01, +1.64099900E-02, +1.04118530E-01
+4.00381550E+01, +4.98568320E+00, +3.36780000E+01, +1.65788400E-02, +1.05152600E-01
+4.00401130E+01, +4.98475610E+00, +3.37820000E+01, +1.67306800E-02, +1.06184030E-01
+4.00391990E+01, +4.98499110E+00, +3.39140000E+01, +1.68825100E-02, +1.07180120E-01
+4.00378940E+01, +4.98458630E+00, +3.40370000E+01, +1.70474400E-02, +1.08220720E-01
+4.00380250E+01, +4.98491280E+00, +3.41630000E+01, +1.72176000E-02, +1.09269170E-01
+4.00375020E+01, +4.98184410E+00, +3.42890000E+01, +1.73602700E-02, +1.10290130E-01
+4.00375020E+01, +4.98406400E+00, +3.44220000E+01, +1.75382800E-02, +1.11320250E-01
+4.00381550E+01, +4.98458630E+00, +3.45510000E+01, +1.76901200E-02, +1.12307180E-01
+4.00381550E+01, +4.98450800E+00, +3.46930000E+01, +1.78458800E-02, +1.13342540E-01
+4.00373720E+01, +4.98445570E+00, +3.48290000E+01, +1.80121200E-02, +1.14373970E-01
+4.00391990E+01, +4.98454710E+00, +3.49770000E+01, +1.81835800E-02, +1.15444680E-01
+4.00380250E+01, +4.98488660E+00, +3.51220000E+01, +1.83406600E-02, +1.16430310E-01
+4.00376330E+01, +4.98492580E+00, +3.52850000E+01, +1.85108200E-02, +1.17451270E-01
+4.00380250E+01, +4.98624470E+00, +3.54570000E+01, +1.86731200E-02, +1.18499720E-01
+4.00381550E+01, +4.98381590E+00, +3.55500000E+01, +1.88341200E-02, +1.19527220E-01
+4.00395910E+01, +4.98457320E+00, +3.56940000E+01, +1.89964300E-02, +1.20532480E-01
+4.00365890E+01, +4.98501720E+00, +3.58150000E+01, +1.91587300E-02, +1.21565220E-01
+4.00377640E+01, +4.98521310E+00, +3.59880000E+01, +1.93171100E-02, +1.22605810E-01
+4.00372410E+01, +4.98542200E+00, +3.61190000E+01, +1.94898900E-02, +1.23626770E-01
+4.00371110E+01, +4.98586600E+00, +3.62340000E+01, +1.96443400E-02, +1.24659520E-01
+4.00380250E+01, +4.98631000E+00, +3.64250000E+01, +1.98132000E-02, +1.25672620E-01
+4.00381550E+01, +4.98484750E+00, +3.65470000E+01, +1.99807400E-02, +1.26701470E-01
+4.00368500E+01, +4.98406400E+00, +3.66460000E+01, +2.01456600E-02, +1.27723740E-01
+4.00376330E+01, +4.98359390E+00, +3.67160000E+01, +2.02831000E-02, +1.28777420E-01
+4.00371110E+01, +4.98380280E+00, +3.68370000E+01, +2.04362400E-02, +1.29772210E-01
+4.00382860E+01, +4.98522610E+00, +3.70110000E+01, +2.06142600E-02, +1.30812800E-01
+4.00384160E+01, +4.98553950E+00, +3.71800000E+01, +2.07765600E-02, +1.31848160E-01
+4.00385470E+01, +4.98570930E+00, +3.73170000E+01, +2.09414900E-02, +1.32867810E-01
+4.00382860E+01, +4.98607490E+00, +3.74660000E+01, +2.11195200E-02, +1.33897940E-01
+4.00352840E+01, +4.98621860E+00, +3.76030000E+01, +2.12844500E-02, +1.34912350E-01
+4.00371110E+01, +4.98324130E+00, +3.77650000E+01, +2.14310500E-02, +1.35943790E-01
+4.00364580E+01, +4.98237950E+00, +3.78460000E+01, +2.15763400E-02, +1.36990950E-01
+4.00365890E+01, +4.98343720E+00, +3.79580000E+01, +2.17517300E-02, +1.38017140E-01
+4.00365890E+01, +4.98419460E+00, +3.81080000E+01, +2.19061900E-02, +1.39011930E-01
+4.00361970E+01, +4.98414230E+00, +3.82600000E+01, +2.20737300E-02, +1.40040740E-01
+4.00368500E+01, +4.98330660E+00, +3.84040000E+01, +2.22229500E-02, +1.41095740E-01
+4.00378940E+01, +4.98385500E+00, +3.85250000E+01, +2.23865600E-02, +1.42118010E-01
+4.00371110E+01, +4.98351550E+00, +3.86770000E+01, +2.25593400E-02, +1.43120640E-01
+4.00371110E+01, +4.98365920E+00, +3.87860000E+01, +2.27085600E-02, +1.44165160E-01
+4.00363280E+01, +4.98355470E+00, +3.89230000E+01, +2.28826400E-02, +1.45195290E-01
+4.00380250E+01, +4.98412930E+00, +3.90680000E+01, +2.30357900E-02, +1.46228030E-01
+4.00376330E+01, +4.97902350E+00, +3.92380000E+01, +2.31758400E-02, +1.47275180E-01
+4.00352840E+01, +4.97978090E+00, +3.93160000E+01, +2.33355300E-02, +1.48264730E-01
+4.00359360E+01, +4.98040770E+00, +3.94980000E+01, +2.35096200E-02, +1.49294850E-01
+4.00367190E+01, +4.98040770E+00, +3.96520000E+01, +2.36693100E-02, +1.50340680E-01
+4.00371110E+01, +4.98089080E+00, +3.97780000E+01, +2.38263800E-02, +1.51372110E-01
+4.00363280E+01, +4.98142620E+00, +3.99350000E+01, +2.39926100E-02, +1.52368210E-01
+4.00367190E+01, +4.98062970E+00, +4.00460000E+01, +2.41379000E-02, +1.53394400E-01
+4.00368500E+01, +4.98128260E+00, +4.02210000E+01, +2.43159200E-02, +1.54436310E-01
+4.00367190E+01, +4.98130870E+00, +4.03870000E+01, +2.44782200E-02, +1.55470360E-01
+4.00368500E+01, +4.98163520E+00, +4.05180000E+01, +2.46339900E-02, +1.56497860E-01
+4.00376330E+01, +4.98126950E+00, +4.06520000E+01, +2.48054600E-02, +1.57501830E-01
+4.00371110E+01, +4.98117810E+00, +4.08180000E+01, +2.49638300E-02, +1.58526720E-01
+4.00367190E+01, +4.98171350E+00, +4.09110000E+01, +2.51104300E-02, +1.59575170E-01
+4.00369800E+01, +4.97978090E+00, +4.10060000E+01, +2.52740500E-02, +1.60614450E-01
+4.00347610E+01, +4.98096920E+00, +4.11570000E+01, +2.54271900E-02, +1.61597460E-01
+4.00356750E+01, +4.98115200E+00, +4.13480000E+01, +2.56156800E-02, +1.62652450E-01
+4.00347610E+01, +4.98096920E+00, +4.14920000E+01, +2.57701300E-02, +1.63648540E-01
+4.00352840E+01, +4.98093000E+00, +4.16640000E+01, +2.59245900E-02, +1.64683900E-01
+4.00356750E+01, +4.98056440E+00, +4.18020000E+01, +2.60947500E-02, +1.65677370E-01
+4.00354140E+01, +4.98065580E+00, +4.19460000E+01, +2.62570500E-02, +1.66725820E-01
+4.00351530E+01, +4.98051220E+00, +4.21050000E+01, +2.64193600E-02, +1.67758560E-01
+4.00359360E+01, +4.98009430E+00, +4.22390000E+01, +2.65829800E-02, +1.68791320E-01
+4.00359360E+01, +4.98022490E+00, +4.23760000E+01, +2.67361200E-02, +1.69826680E-01
+4.00369800E+01, +4.98030320E+00, +4.25550000E+01, +2.69075900E-02, +1.70826690E-01
+4.00355450E+01, +4.98013350E+00, +4.27270000E+01, +2.70790600E-02, +1.71871220E-01
+4.00363280E+01, +4.97978090E+00, +4.28810000E+01, +2.72413600E-02, +1.72907890E-01
+4.00351530E+01, +4.97788750E+00, +4.30760000E+01, +2.73892700E-02, +1.73913140E-01
+4.00338480E+01, +4.97681670E+00, +4.31710000E+01, +2.75581200E-02, +1.74919700E-01
+4.00341090E+01, +4.98057750E+00, +4.33110000E+01, +2.77125800E-02, +1.75949830E-01
+4.00351530E+01, +4.98061660E+00, +4.34590000E+01, +2.78879700E-02, +1.76996970E-01
+4.00339780E+01, +4.98057750E+00, +4.36500000E+01, +2.80450400E-02, +1.78045420E-01
+4.00341090E+01, +4.98044690E+00, +4.37950000E+01, +2.82073500E-02, +1.79017980E-01
+4.00341090E+01, +4.98023790E+00, +4.39610000E+01, +2.83762000E-02, +1.80053340E-01
+4.00352840E+01, +4.97998980E+00, +4.40950000E+01, +2.85437400E-02, +1.81099170E-01
+4.00345000E+01, +4.97978090E+00, +4.42380000E+01, +2.87126000E-02, +1.82120130E-01
+4.00350230E+01, +4.97961120E+00, +4.44330000E+01, +2.88644300E-02, +1.83180360E-01
+4.00363280E+01, +4.97953280E+00, +4.45510000E+01, +2.90241200E-02, +1.84163360E-01
+4.00345000E+01, +4.97962420E+00, +4.47210000E+01, +2.92047500E-02, +1.85205260E-01
+4.00341090E+01, +4.97885380E+00, +4.48580000E+01, +2.93592000E-02, +1.86245860E-01
+4.00351530E+01, +4.97839670E+00, +4.50590000E+01, +2.95280600E-02, +1.87283840E-01
+4.00335870E+01, +4.97927160E+00, +4.51520000E+01, +2.96877400E-02, +1.88278620E-01
+4.00342390E+01, +4.98032930E+00, +4.52700000E+01, +2.98461200E-02, +1.89323150E-01
+4.00341090E+01, +4.97959810E+00, +4.53950000E+01, +3.00045000E-02, +1.90357200E-01
+4.00335870E+01, +4.97903660E+00, +4.55290000E+01, +3.01707400E-02, +1.91383400E-01
+4.00334560E+01, +4.97899740E+00, +4.56690000E+01, +3.03461300E-02, +1.92441010E-01
+4.00342390E+01, +4.97891910E+00, +4.58710000E+01, +3.05071300E-02, +1.93430560E-01
+4.00341090E+01, +4.97887990E+00, +4.60180000E+01, +3.06563500E-02, +1.94438430E-01
+4.00342390E+01, +4.97901050E+00, +4.61450000E+01, +3.08382900E-02, +1.95492110E-01
+4.00356750E+01, +4.97877540E+00, +4.63020000E+01, +3.09966700E-02, +1.96527470E-01
+4.00342390E+01, +4.97901050E+00, +4.64420000E+01, +3.11432700E-02, +1.97527490E-01
+4.00345000E+01, +4.97890600E+00, +4.65540000E+01, +3.13212800E-02, +1.98549760E-01
+4.00346310E+01, +4.97867100E+00, +4.67200000E+01, +3.14796600E-02, +1.99575990E-01
+4.00348920E+01, +4.97827920E+00, +4.69570000E+01, +3.16472100E-02, +2.00619200E-01
+4.00326730E+01, +4.97744350E+00, +4.71070000E+01, +3.18016600E-02, +2.01633620E-01
+4.00333260E+01, +4.97787440E+00, +4.72730000E+01, +3.19639700E-02, +2.02645420E-01
+4.00337170E+01, +4.97784830E+00, +4.73910000E+01, +3.21275800E-02, +2.03683400E-01
+4.00333260E+01, +4.97748270E+00, +4.74960000E+01, +3.22794200E-02, +2.04725300E-01
+4.00341090E+01, +4.97766550E+00, +4.76180000E+01, +3.24482700E-02, +2.05767210E-01
+4.00339780E+01, +4.97732600E+00, +4.77970000E+01, +3.26040300E-02, +2.06767220E-01
+4.00329340E+01, +4.97724760E+00, +4.79960000E+01, +3.27728800E-02, +2.07802580E-01
+4.00338480E+01, +4.97737820E+00, +4.81700000E+01, +3.29469700E-02, +2.08836630E-01
+4.00342390E+01, +4.97689510E+00, +4.83730000E+01, +3.31053500E-02, +2.09892950E-01
+4.00341090E+01, +4.97590260E+00, +4.84890000E+01, +3.32676500E-02, +2.10868100E-01
+4.00342390E+01, +4.97600710E+00, +4.86250000E+01, +3.34208000E-02, +2.11902150E-01
+4.00345000E+01, +4.97668610E+00, +4.87830000E+01, +3.35961900E-02, +2.12946670E-01
+4.00318900E+01, +4.97650330E+00, +4.89920000E+01, +3.37532700E-02, +2.13959780E-01
+4.00329340E+01, +4.97596790E+00, +4.91540000E+01, +3.39116500E-02, +2.14988590E-01
+4.00326730E+01, +4.97566760E+00, +4.93020000E+01, +3.40818100E-02, +2.16008240E-01
+4.00331950E+01, +4.97548480E+00, +4.94260000E+01, +3.42467300E-02, +2.17044910E-01
+4.00325430E+01, +4.97548480E+00, +4.96130000E+01, +3.44155800E-02, +2.18092050E-01
+4.00338480E+01, +4.97429650E+00, +4.98120000E+01, +3.45805100E-02, +2.19106470E-01
+4.00331950E+01, +4.97468820E+00, +4.98680000E+01, +3.47297200E-02, +2.20109100E-01
+4.00328040E+01, +4.97534110E+00, +5.00040000E+01, +3.48920300E-02, +2.21151050E-01
+4.00331950E+01, +4.97552400E+00, +5.01760000E+01, +3.50569500E-02, +2.22175940E-01
+4.00334560E+01, +4.97575900E+00, +5.02710000E+01, +3.52114100E-02, +2.23216530E-01
+4.00329340E+01, +4.97523670E+00, +5.04480000E+01, +3.53763300E-02, +2.24202150E-01
+4.00335870E+01, +4.97544560E+00, +5.06150000E+01, +3.55360200E-02, +2.25247980E-01
+4.00333260E+01, +4.97532810E+00, +5.07190000E+01, +3.57048700E-02, +2.26285960E-01
+4.00326730E+01, +4.97491020E+00, +5.09090000E+01, +3.58619400E-02, +2.27322630E-01
+4.00320200E+01, +4.97660780E+00, +5.10170000E+01, +3.60281800E-02, +2.28376310E-01
+4.00329340E+01, +4.97594180E+00, +5.12100000E+01, +3.61800100E-02, +2.29364550E-01
+4.00326730E+01, +4.97578510E+00, +5.13490000E+01, +3.63606400E-02, +2.30388130E-01
+4.00320200E+01, +4.97548480E+00, +5.15010000E+01, +3.65216400E-02, +2.31439210E-01
+4.00326730E+01, +4.97552400E+00, +5.16370000E+01, +3.66774000E-02, +2.32474570E-01
+4.00321510E+01, +4.97530200E+00, +5.18270000E+01, +3.68357800E-02, +2.33473280E-01
+4.00325430E+01, +4.97524970E+00, +5.19380000E+01, +3.69915500E-02, +2.34490310E-01
+4.00329340E+01, +4.97463600E+00, +5.21150000E+01, +3.71656300E-02, +2.35524360E-01
+4.00322820E+01, +4.97645110E+00, +5.22130000E+01, +3.73384100E-02, +2.36563650E-01
+4.00325430E+01, +4.97592880E+00, +5.23810000E+01, +3.74994100E-02, +2.37596390E-01
+4.00329340E+01, +4.97585040E+00, +5.24790000E+01, +3.76591000E-02, +2.38602950E-01
+4.00333260E+01, +4.97621600E+00, +5.26780000E+01, +3.78253300E-02, +2.39629150E-01
+4.00309760E+01, +4.97590260E+00, +5.28620000E+01, +3.79810900E-02, +2.40672360E-01
