Vin, Vout, TC, Iin, Iout
+4.50575770E+01, +5.00878300E+00, +2.48930000E+01, +1.33510000E-04, +2.88000000E-05
+4.50608400E+01, +5.00809090E+00, +2.47540000E+01, +1.37440000E-04, +5.24000000E-06
+4.50383900E+01, +4.91227020E+00, +6.44580000E+01, +6.96139300E-02, +5.00904220E-01
+4.50366930E+01, +4.91612230E+00, +7.15920000E+01, +6.96872300E-02, +5.00917310E-01
+4.50379980E+01, +4.91861640E+00, +7.58350000E+01, +6.97369700E-02, +5.00910770E-01
+4.50361710E+01, +4.92019640E+00, +7.88170000E+01, +6.97618400E-02, +5.00902910E-01
+4.50372150E+01, +4.92167200E+00, +8.10390000E+01, +6.97814700E-02, +5.00897680E-01
+4.50383900E+01, +4.92270360E+00, +8.27750000E+01, +6.97945600E-02, +5.00892440E-01
+4.50365630E+01, +4.92370910E+00, +8.42630000E+01, +6.98272800E-02, +5.00876740E-01
+4.50385210E+01, +4.92459700E+00, +8.54310000E+01, +6.98429900E-02, +5.00891130E-01
+4.50352570E+01, +4.92524990E+00, +8.65410000E+01, +6.98534600E-02, +5.00889820E-01
+4.50393040E+01, +4.92591590E+00, +8.73800000E+01, +6.98587000E-02, +5.00891130E-01
+4.50368240E+01, +4.92658190E+00, +8.81340000E+01, +6.98783300E-02, +5.00893750E-01
+4.50377370E+01, +4.92693440E+00, +8.87650000E+01, +6.98809500E-02, +5.00910770E-01
+4.50386510E+01, +4.92748290E+00, +8.92350000E+01, +6.98953500E-02, +5.00895060E-01
+4.50377370E+01, +4.92782240E+00, +8.96990000E+01, +6.99018900E-02, +5.00902910E-01
+4.50379980E+01, +4.92795300E+00, +9.02740000E+01, +6.99032000E-02, +5.00902910E-01
+4.50373460E+01, +4.92839710E+00, +9.08100000E+01, +6.99189100E-02, +5.00893750E-01
+4.50385210E+01, +4.92863220E+00, +9.12550000E+01, +6.99123600E-02, +5.00900300E-01
+4.50366930E+01, +4.92880200E+00, +9.16560000E+01, +6.99189100E-02, +5.00905530E-01
+4.50376070E+01, +4.92928510E+00, +9.19270000E+01, +6.99293800E-02, +5.00895060E-01
+4.50395650E+01, +4.92929820E+00, +9.22170000E+01, +6.99280700E-02, +5.00900300E-01
+4.50370850E+01, +4.92962460E+00, +9.24600000E+01, +6.99450900E-02, +5.00906840E-01
+4.50387820E+01, +4.92953320E+00, +9.27920000E+01, +6.99306900E-02, +5.00901610E-01
+4.50373460E+01, +4.93000330E+00, +9.30660000E+01, +6.99477100E-02, +5.00904220E-01
+4.50390430E+01, +4.93023830E+00, +9.32870000E+01, +6.99568700E-02, +5.00909460E-01
+4.50366930E+01, +4.93059090E+00, +9.34980000E+01, +6.99581800E-02, +5.00898990E-01
+4.50383900E+01, +4.93098270E+00, +9.36010000E+01, +6.99621000E-02, +5.00908150E-01
+4.50343440E+01, +4.93102180E+00, +9.37430000E+01, +6.99712700E-02, +5.00910770E-01
+4.50374760E+01, +4.93077370E+00, +9.38000000E+01, +6.99581800E-02, +5.00912080E-01
+4.50378680E+01, +4.93093040E+00, +9.40580000E+01, +6.99712700E-02, +5.00922550E-01
+4.50396950E+01, +4.93116550E+00, +9.41820000E+01, +6.99699600E-02, +5.00921240E-01
+4.50378680E+01, +4.93093040E+00, +9.43140000E+01, +6.99738800E-02, +5.00916000E-01
+4.50402170E+01, +4.93125690E+00, +9.44230000E+01, +6.99725800E-02, +5.00914690E-01
+4.50406090E+01, +4.93141360E+00, +9.45100000E+01, +6.99804300E-02, +5.00917310E-01
+4.50382600E+01, +4.93117850E+00, +9.45220000E+01, +6.99791200E-02, +5.00918620E-01
+4.50393040E+01, +4.93130910E+00, +9.45980000E+01, +6.99725800E-02, +5.00912080E-01
+4.50379980E+01, +4.93123080E+00, +9.45540000E+01, +6.99621000E-02, +5.00909460E-01
+4.50386510E+01, +4.93126990E+00, +9.46490000E+01, +6.99751900E-02, +5.00921240E-01
+4.50368240E+01, +4.93159640E+00, +9.47400000E+01, +6.99804300E-02, +5.00923860E-01
+4.50378680E+01, +4.93136130E+00, +9.48760000E+01, +6.99778100E-02, +5.00908150E-01
+4.50395650E+01, +4.93160950E+00, +9.50080000E+01, +6.99817400E-02, +5.00921240E-01
+4.50383900E+01, +4.93168780E+00, +9.49930000E+01, +6.99843600E-02, +5.00921240E-01
+4.50393040E+01, +4.93162250E+00, +9.49480000E+01, +6.99817400E-02, +5.00883280E-01
+4.50385210E+01, +4.93176610E+00, +9.50080000E+01, +6.99830500E-02, +5.00889820E-01
+4.50386510E+01, +4.93174000E+00, +9.50050000E+01, +6.99895900E-02, +5.00910770E-01
+4.50376070E+01, +4.93184450E+00, +9.51470000E+01, +6.99882800E-02, +5.00910770E-01
+4.50391730E+01, +4.93166170E+00, +9.51910000E+01, +6.99843600E-02, +5.00898990E-01
+4.50394340E+01, +4.93179230E+00, +9.53240000E+01, +6.99843600E-02, +5.00906840E-01
+4.50383900E+01, +4.93190980E+00, +9.53810000E+01, +6.99738800E-02, +5.00898990E-01
+4.50391730E+01, +4.93193590E+00, +9.54090000E+01, +6.99843600E-02, +5.00908150E-01
+4.50385210E+01, +4.93190980E+00, +9.54150000E+01, +6.99843600E-02, +5.00906840E-01
+4.50391730E+01, +4.93183140E+00, +9.53020000E+01, +6.99830500E-02, +5.00906840E-01
+4.50383900E+01, +4.93183140E+00, +9.52700000E+01, +6.99725800E-02, +5.00917310E-01
+4.50387820E+01, +4.93205340E+00, +9.53620000E+01, +6.99843600E-02, +5.00898990E-01
+4.50376070E+01, +4.93209260E+00, +9.54410000E+01, +6.99895900E-02, +5.00910770E-01
+4.50389120E+01, +4.93193590E+00, +9.53680000E+01, +6.99765000E-02, +5.00902910E-01
+4.50406090E+01, +4.93206650E+00, +9.54630000E+01, +6.99804300E-02, +5.00908150E-01
+4.50382600E+01, +4.93206650E+00, +9.55070000E+01, +6.99909000E-02, +5.00891130E-01
+4.50403480E+01, +4.93213180E+00, +9.55390000E+01, +6.99974400E-02, +5.00905530E-01
+4.50399560E+01, +4.93217100E+00, +9.55510000E+01, +6.99974400E-02, +5.00912080E-01
+4.50399560E+01, +4.93239290E+00, +9.56460000E+01, +6.99948300E-02, +5.00904220E-01
+4.50390430E+01, +4.93215790E+00, +9.56240000E+01, +6.99935200E-02, +5.00914690E-01
+4.50393040E+01, +4.93219710E+00, +9.56210000E+01, +6.99909000E-02, +5.00916000E-01
+4.50373460E+01, +4.93201430E+00, +9.57120000E+01, +6.99804300E-02, +5.00900300E-01
+4.50396950E+01, +4.93221010E+00, +9.57660000E+01, +6.99922100E-02, +5.00912080E-01
+4.50412620E+01, +4.93235380E+00, +9.57280000E+01, +6.99909000E-02, +5.00902910E-01
+4.50389120E+01, +4.93215790E+00, +9.57340000E+01, +6.99778100E-02, +5.00910770E-01
+4.50402170E+01, +4.93211870E+00, +9.57280000E+01, +6.99869700E-02, +5.00908150E-01
+4.50383900E+01, +4.93192280E+00, +9.57500000E+01, +6.99909000E-02, +5.00916000E-01
+4.50403480E+01, +4.93192280E+00, +9.57150000E+01, +6.99869700E-02, +5.00927780E-01
+4.50391730E+01, +4.93251050E+00, +9.57750000E+01, +6.99987500E-02, +5.00912080E-01
+4.50399560E+01, +4.93239290E+00, +9.56810000E+01, +7.00000600E-02, +5.00895060E-01
+4.50391730E+01, +4.93251050E+00, +9.57280000E+01, +7.00013700E-02, +5.00912080E-01
+4.50394340E+01, +4.93228850E+00, +9.56680000E+01, +6.99935200E-02, +5.00905530E-01
+4.50415230E+01, +4.93245820E+00, +9.56990000E+01, +6.99895900E-02, +5.00905530E-01
+4.50406090E+01, +4.93217100E+00, +9.57580000E+01, +6.99817400E-02, +5.00913390E-01
+4.50400870E+01, +4.93228850E+00, +9.57460000E+01, +6.99895900E-02, +5.00901610E-01
+4.50407390E+01, +4.93226240E+00, +9.57650000E+01, +6.99895900E-02, +5.00908150E-01
+4.50415230E+01, +4.93213180E+00, +9.56500000E+01, +6.99882800E-02, +5.00895060E-01
+4.50385210E+01, +4.93202730E+00, +9.55390000E+01, +6.99869700E-02, +5.00926470E-01
+4.50400870E+01, +4.93228850E+00, +9.55070000E+01, +6.99869700E-02, +5.00914690E-01
+4.50402170E+01, +4.93210570E+00, +9.55660000E+01, +6.99935200E-02, +5.00902910E-01
+4.50398260E+01, +4.93213180E+00, +9.56160000E+01, +6.99961400E-02, +5.00897680E-01
+4.50402170E+01, +4.93230150E+00, +9.57010000E+01, +6.99895900E-02, +5.00916000E-01
+4.50394340E+01, +4.93196200E+00, +9.57230000E+01, +6.99922100E-02, +5.00910770E-01
+4.50398260E+01, +4.93196200E+00, +9.56760000E+01, +6.99882800E-02, +5.00914690E-01
+4.50383900E+01, +4.93224930E+00, +9.55780000E+01, +6.99961400E-02, +5.00909460E-01
+4.50396950E+01, +4.93221010E+00, +9.54990000E+01, +6.99843600E-02, +5.00914690E-01
+4.50391730E+01, +4.93223620E+00, +9.55120000E+01, +6.99922100E-02, +5.00910770E-01
+4.50399560E+01, +4.93200120E+00, +9.55530000E+01, +6.99895900E-02, +5.00913390E-01
+4.50403480E+01, +4.93227540E+00, +9.55840000E+01, +6.99974400E-02, +5.00902910E-01
+4.50398260E+01, +4.93247130E+00, +9.56390000E+01, +6.99856600E-02, +5.00909460E-01
+4.50408700E+01, +4.93247130E+00, +9.56200000E+01, +6.99987500E-02, +5.00919930E-01
+4.50389120E+01, +4.93221010E+00, +9.56980000E+01, +6.99974400E-02, +5.00921240E-01
+4.50395650E+01, +4.93221010E+00, +9.56660000E+01, +6.99882800E-02, +5.00923860E-01
+4.50386510E+01, +4.93227540E+00, +9.55940000E+01, +6.99961400E-02, +5.00912080E-01
+4.50399560E+01, +4.93232760E+00, +9.56980000E+01, +6.99987500E-02, +5.00921240E-01
+4.50404780E+01, +4.93210570E+00, +9.56950000E+01, +6.99869700E-02, +5.00909460E-01
+4.50400870E+01, +4.93205340E+00, +9.56790000E+01, +6.99974400E-02, +5.00919930E-01
+4.50415230E+01, +4.93213180E+00, +9.56290000E+01, +6.99817400E-02, +5.00908150E-01
+4.50394340E+01, +4.93215790E+00, +9.54580000E+01, +6.99725800E-02, +5.00917310E-01
+4.50407390E+01, +4.93193590E+00, +9.54680000E+01, +6.99869700E-02, +5.00902910E-01
+4.50398260E+01, +4.93210570E+00, +9.54930000E+01, +6.99869700E-02, +5.00910770E-01
+4.50403480E+01, +4.93213180E+00, +9.55590000E+01, +6.99843600E-02, +5.00910770E-01
+4.50416530E+01, +4.93211870E+00, +9.54990000E+01, +6.99843600E-02, +5.00916000E-01
+4.50408700E+01, +4.93217100E+00, +9.54860000E+01, +6.99843600E-02, +5.00916000E-01
+4.50411310E+01, +4.93209260E+00, +9.54800000E+01, +6.99830500E-02, +5.00919930E-01
+4.50396950E+01, +4.93194900E+00, +9.54620000E+01, +6.99856600E-02, +5.00909460E-01
+4.50420450E+01, +4.93204040E+00, +9.54450000E+01, +6.99843600E-02, +5.00919930E-01
+4.50402170E+01, +4.93215790E+00, +9.54810000E+01, +6.99804300E-02, +5.00906840E-01
+4.50411310E+01, +4.93217100E+00, +9.55560000E+01, +6.99895900E-02, +5.00905530E-01
+4.50382600E+01, +4.93207950E+00, +9.56350000E+01, +6.99961400E-02, +5.00918620E-01
+4.50404780E+01, +4.93235380E+00, +9.57330000E+01, +6.99895900E-02, +5.00914690E-01
+4.50420450E+01, +4.93214480E+00, +9.56930000E+01, +6.99856600E-02, +5.00906840E-01
+4.50402170E+01, +4.93219710E+00, +9.57930000E+01, +6.99830500E-02, +5.00923860E-01
+4.50408700E+01, +4.93221010E+00, +9.57520000E+01, +6.99804300E-02, +5.00913390E-01
+4.50398260E+01, +4.93211870E+00, +9.57140000E+01, +6.99987500E-02, +5.00896370E-01
+4.50416530E+01, +4.93226240E+00, +9.56350000E+01, +6.99882800E-02, +5.00910770E-01
+4.50393040E+01, +4.93219710E+00, +9.55430000E+01, +6.99843600E-02, +5.00905530E-01
+4.50411310E+01, +4.93234070E+00, +9.56290000E+01, +6.99830500E-02, +5.00914690E-01
+4.50387820E+01, +4.93234070E+00, +9.56380000E+01, +6.99895900E-02, +5.00901610E-01
+4.50403480E+01, +4.93241910E+00, +9.56570000E+01, +6.99935200E-02, +5.00916000E-01
+4.50416530E+01, +4.93217100E+00, +9.56980000E+01, +6.99856600E-02, +5.00908150E-01
+4.50400870E+01, +4.93232760E+00, +9.57330000E+01, +6.99961400E-02, +5.00908150E-01
+4.50421750E+01, +4.93232760E+00, +9.58400000E+01, +6.99961400E-02, +5.00893750E-01
+4.50412620E+01, +4.93236680E+00, +9.57770000E+01, +6.99935200E-02, +5.00908150E-01
+4.50416530E+01, +4.93241910E+00, +9.57490000E+01, +6.99987500E-02, +5.00913390E-01
+4.50410010E+01, +4.93224930E+00, +9.56030000E+01, +6.99869700E-02, +5.00910770E-01
+4.50416530E+01, +4.93227540E+00, +9.55780000E+01, +6.99738800E-02, +5.00905530E-01
+4.50389120E+01, +4.93223620E+00, +9.56540000E+01, +6.99935200E-02, +5.00909460E-01
+4.50408700E+01, +4.93222320E+00, +9.56220000E+01, +6.99869700E-02, +5.00908150E-01
+4.50419140E+01, +4.93217100E+00, +9.57480000E+01, +6.99817400E-02, +5.00902910E-01
+4.50402170E+01, +4.93210570E+00, +9.55940000E+01, +6.99830500E-02, +5.00912080E-01
+4.50410010E+01, +4.93236680E+00, +9.55150000E+01, +6.99922100E-02, +5.00892440E-01
+4.50395650E+01, +4.93222320E+00, +9.55370000E+01, +6.99817400E-02, +5.00892440E-01
+4.50406090E+01, +4.93218400E+00, +9.55620000E+01, +6.99935200E-02, +5.00906840E-01
+4.50393040E+01, +4.93196200E+00, +9.55530000E+01, +6.99961400E-02, +5.00912080E-01
+4.50399560E+01, +4.93196200E+00, +9.56180000E+01, +6.99830500E-02, +5.00904220E-01
+4.50419140E+01, +4.93217100E+00, +9.56220000E+01, +6.99987500E-02, +5.00893750E-01
+4.50400870E+01, +4.93224930E+00, +9.54630000E+01, +6.99869700E-02, +5.00898990E-01
+4.50411310E+01, +4.93200120E+00, +9.55360000E+01, +6.99830500E-02, +5.00896370E-01
+4.50396950E+01, +4.93223620E+00, +9.54860000E+01, +6.99869700E-02, +5.00902910E-01
+4.50412620E+01, +4.93188370E+00, +9.55480000E+01, +6.99804300E-02, +5.00917310E-01
+4.50396950E+01, +4.93204040E+00, +9.56100000E+01, +6.99856600E-02, +5.00910770E-01
+4.50407390E+01, +4.93222320E+00, +9.57090000E+01, +6.99856600E-02, +5.00908150E-01
+4.50383900E+01, +4.93226240E+00, +9.57430000E+01, +6.99974400E-02, +5.00902910E-01
+4.50387820E+01, +4.93219710E+00, +9.56800000E+01, +6.99804300E-02, +5.00902910E-01
+4.50406090E+01, +4.93232760E+00, +9.55920000E+01, +6.99765000E-02, +5.00916000E-01
+4.50393040E+01, +4.93222320E+00, +9.55920000E+01, +6.99922100E-02, +5.00905530E-01
+4.50408700E+01, +4.93218400E+00, +9.56200000E+01, +6.99948300E-02, +5.00905530E-01
+4.50396950E+01, +4.93219710E+00, +9.56610000E+01, +6.99751900E-02, +5.00906840E-01
+4.50403480E+01, +4.93215790E+00, +9.56640000E+01, +6.99869700E-02, +5.00905530E-01
+4.50385210E+01, +4.93226240E+00, +9.56360000E+01, +7.00000600E-02, +5.00900300E-01
+4.50398260E+01, +4.93221010E+00, +9.56140000E+01, +6.99882800E-02, +5.00906840E-01
+4.50417840E+01, +4.93215790E+00, +9.55850000E+01, +6.99922100E-02, +5.00914690E-01
+4.50394340E+01, +4.93228850E+00, +9.56770000E+01, +7.00000600E-02, +5.00918620E-01
+4.50402170E+01, +4.93226240E+00, +9.57490000E+01, +6.99948300E-02, +5.00910770E-01
+4.50399560E+01, +4.93209260E+00, +9.57210000E+01, +6.99882800E-02, +5.00898990E-01
+4.50403480E+01, +4.93219710E+00, +9.56070000E+01, +6.99922100E-02, +5.00902910E-01
+4.50394340E+01, +4.93230150E+00, +9.56140000E+01, +6.99987500E-02, +5.00905530E-01
+4.50408700E+01, +4.93223620E+00, +9.55880000E+01, +6.99922100E-02, +5.00905530E-01
+4.50378680E+01, +4.93219710E+00, +9.55700000E+01, +6.99948300E-02, +5.00916000E-01
+4.50413920E+01, +4.93213180E+00, +9.55220000E+01, +6.99830500E-02, +5.00904220E-01
+4.50419140E+01, +4.93239290E+00, +9.55130000E+01, +6.99869700E-02, +5.00913390E-01
+4.50395650E+01, +4.93200120E+00, +9.55130000E+01, +6.99909000E-02, +5.00914690E-01
+4.50421750E+01, +4.93227540E+00, +9.55220000E+01, +6.99948300E-02, +5.00906840E-01
+4.50387820E+01, +4.93222320E+00, +9.55570000E+01, +6.99882800E-02, +5.00909460E-01
+4.50408700E+01, +4.93214480E+00, +9.56290000E+01, +6.99791200E-02, +5.00901610E-01
+4.50400870E+01, +4.93237990E+00, +9.56520000E+01, +6.99935200E-02, +5.00909460E-01
+4.50412620E+01, +4.93243210E+00, +9.56960000E+01, +6.99987500E-02, +5.00910770E-01
+4.50417840E+01, +4.93237990E+00, +9.57870000E+01, +6.99922100E-02, +5.00916000E-01
+4.50395650E+01, +4.93221010E+00, +9.56930000E+01, +6.99751900E-02, +5.00914690E-01
+4.50411310E+01, +4.93252350E+00, +9.56960000E+01, +6.99922100E-02, +5.00913390E-01
+4.50406090E+01, +4.93235380E+00, +9.56360000E+01, +6.99804300E-02, +5.00921240E-01
+4.50410010E+01, +4.93223620E+00, +9.56360000E+01, +6.99895900E-02, +5.00913390E-01
+4.50395650E+01, +4.93215790E+00, +9.55440000E+01, +6.99791200E-02, +5.00923860E-01
+4.50403480E+01, +4.93236680E+00, +9.56110000E+01, +6.99882800E-02, +5.00918620E-01
+4.50412620E+01, +4.93217100E+00, +9.54620000E+01, +6.99765000E-02, +5.00909460E-01
+4.50402170E+01, +4.93202730E+00, +9.55000000E+01, +6.99935200E-02, +5.00927780E-01
+4.50402170E+01, +4.93240600E+00, +9.55950000E+01, +6.99922100E-02, +5.00918620E-01
+4.50399560E+01, +4.93207950E+00, +9.56520000E+01, +6.99935200E-02, +5.00923860E-01
+4.50406090E+01, +4.93228850E+00, +9.56260000E+01, +6.99922100E-02, +5.00913390E-01
+4.50393040E+01, +4.93205340E+00, +9.55600000E+01, +6.99882800E-02, +5.00908150E-01
+4.50398260E+01, +4.93201430E+00, +9.54870000E+01, +6.99856600E-02, +5.00913390E-01
+4.50404780E+01, +4.93222320E+00, +9.54460000E+01, +6.99987500E-02, +5.00923860E-01
+4.50396950E+01, +4.93211870E+00, +9.54650000E+01, +6.99909000E-02, +5.00908150E-01
+4.50403480E+01, +4.93217100E+00, +9.54870000E+01, +6.99882800E-02, +5.00914690E-01
+4.50417840E+01, +4.93217100E+00, +9.55440000E+01, +6.99922100E-02, +5.00916000E-01
+4.50411310E+01, +4.93200120E+00, +9.56550000E+01, +6.99922100E-02, +5.00912080E-01
+4.50400870E+01, +4.93206650E+00, +9.56610000E+01, +6.99922100E-02, +5.00901610E-01
+4.50372150E+01, +4.93219710E+00, +9.56740000E+01, +6.99974400E-02, +5.00922550E-01
+4.50399560E+01, +4.93184450E+00, +9.55630000E+01, +6.99869700E-02, +5.00904220E-01
+4.50396950E+01, +4.93224930E+00, +9.55350000E+01, +6.99843600E-02, +5.00908150E-01
+4.50412620E+01, +4.93213180E+00, +9.55600000E+01, +6.99974400E-02, +5.00912080E-01
+4.50394340E+01, +4.93214480E+00, +9.56230000E+01, +6.99935200E-02, +5.00926470E-01
+4.50399560E+01, +4.93213180E+00, +9.55730000E+01, +6.99909000E-02, +5.00912080E-01
+4.50385210E+01, +4.93215790E+00, +9.55850000E+01, +7.00013700E-02, +5.00909460E-01
+4.50400870E+01, +4.93217100E+00, +9.55760000E+01, +6.99935200E-02, +5.00914690E-01
+4.50415230E+01, +4.93214480E+00, +9.56990000E+01, +6.99765000E-02, +5.00914690E-01
+4.50403480E+01, +4.93214480E+00, +9.56290000E+01, +6.99882800E-02, +5.00918620E-01
+4.50407390E+01, +4.93230150E+00, +9.56640000E+01, +6.99974400E-02, +5.00909460E-01
+4.50403480E+01, +4.93231460E+00, +9.56330000E+01, +6.99987500E-02, +5.00912080E-01
+4.50408700E+01, +4.93223620E+00, +9.56040000E+01, +6.99922100E-02, +5.00923860E-01
+4.50394340E+01, +4.93204040E+00, +9.55700000E+01, +6.99895900E-02, +5.00902910E-01
+4.50404780E+01, +4.93218400E+00, +9.55630000E+01, +6.99909000E-02, +5.00929090E-01
+4.50385210E+01, +4.93209260E+00, +9.55130000E+01, +6.99856600E-02, +5.00917310E-01
+4.50399560E+01, +4.93188370E+00, +9.55410000E+01, +6.99817400E-02, +5.00912080E-01
+4.50398260E+01, +4.93211870E+00, +9.54650000E+01, +6.99935200E-02, +5.00914690E-01
+4.50407390E+01, +4.93221010E+00, +9.55370000E+01, +6.99895900E-02, +5.00923860E-01
+4.50413920E+01, +4.93211870E+00, +9.55270000E+01, +6.99909000E-02, +5.00916000E-01
+4.50398260E+01, +4.93210570E+00, +9.55150000E+01, +6.99869700E-02, +5.00913390E-01
+4.50403480E+01, +4.93192280E+00, +9.54580000E+01, +6.99804300E-02, +5.00916000E-01
+4.50395650E+01, +4.93215790E+00, +9.54480000E+01, +6.99895900E-02, +5.00919930E-01
+4.50411310E+01, +4.93204040E+00, +9.55080000E+01, +6.99817400E-02, +5.00922550E-01
+4.50394340E+01, +4.93209260E+00, +9.55220000E+01, +6.99882800E-02, +5.00919930E-01
+4.50398260E+01, +4.93215790E+00, +9.55310000E+01, +6.99922100E-02, +5.00912080E-01
+4.50407390E+01, +4.93196200E+00, +9.55660000E+01, +6.99765000E-02, +5.00910770E-01
+4.50394340E+01, +4.93205340E+00, +9.55980000E+01, +6.99843600E-02, +5.00925170E-01
+4.50413920E+01, +4.93201430E+00, +9.55550000E+01, +6.99778100E-02, +5.00917310E-01
+4.50394340E+01, +4.93194900E+00, +9.55900000E+01, +6.99791200E-02, +5.00916000E-01
+4.50403480E+01, +4.93179230E+00, +9.55870000E+01, +6.99869700E-02, +5.00917310E-01
+4.50389120E+01, +4.93179230E+00, +9.56120000E+01, +6.99830500E-02, +5.00925170E-01
+4.50399560E+01, +4.93188370E+00, +9.55550000E+01, +6.99765000E-02, +5.00918620E-01
+4.50374760E+01, +4.93170090E+00, +9.55680000E+01, +6.99882800E-02, +5.00914690E-01
+4.50395650E+01, +4.93193590E+00, +9.56220000E+01, +6.99830500E-02, +5.00913390E-01
+4.50413920E+01, +4.93193590E+00, +9.57420000E+01, +6.99948300E-02, +5.00922550E-01
+4.50389120E+01, +4.93204040E+00, +9.57230000E+01, +6.99804300E-02, +5.00918620E-01
+4.50400870E+01, +4.93198810E+00, +9.56630000E+01, +6.99856600E-02, +5.00916000E-01
+4.50393040E+01, +4.93204040E+00, +9.56690000E+01, +6.99830500E-02, +5.00916000E-01
+4.50395650E+01, +4.93209260E+00, +9.56750000E+01, +6.99895900E-02, +5.00908150E-01
+4.50383900E+01, +4.93222320E+00, +9.56470000E+01, +6.99869700E-02, +5.00926470E-01
+4.50399560E+01, +4.93219710E+00, +9.56850000E+01, +7.00026800E-02, +5.00929090E-01
+4.50370850E+01, +4.93192280E+00, +9.56310000E+01, +6.99791200E-02, +5.00912080E-01
+4.50396950E+01, +4.93196200E+00, +9.56310000E+01, +6.99804300E-02, +5.00912080E-01
+4.50408700E+01, +4.93204040E+00, +9.56120000E+01, +6.99751900E-02, +5.00921240E-01
+4.50399560E+01, +4.93197510E+00, +9.56030000E+01, +6.99843600E-02, +5.00908150E-01
